vin	V(col)	V(em)
-1,000000000000000e+000	1,000000e+001	-3,010867e-009
-9,500000000000000e-001	1,000000e+001	-2,860867e-009
-8,999999999999999e-001	1,000000e+001	-2,710867e-009
-8,499999999999999e-001	1,000000e+001	-2,560867e-009
-7,999999999999998e-001	1,000000e+001	-2,410867e-009
-7,499999999999998e-001	1,000000e+001	-2,260867e-009
-6,999999999999997e-001	1,000000e+001	-2,110867e-009
-6,499999999999997e-001	1,000000e+001	-1,960867e-009
-5,999999999999996e-001	1,000000e+001	-1,810867e-009
-5,499999999999996e-001	1,000000e+001	-1,660868e-009
-4,999999999999996e-001	1,000000e+001	-1,510868e-009
-4,499999999999996e-001	1,000000e+001	-1,360868e-009
-3,999999999999996e-001	1,000000e+001	-1,210867e-009
-3,499999999999996e-001	1,000000e+001	-1,060866e-009
-2,999999999999997e-001	1,000000e+001	-9,108615e-010
-2,499999999999997e-001	1,000000e+001	-7,608423e-010
-1,999999999999997e-001	1,000000e+001	-6,107587e-010
-1,499999999999997e-001	1,000000e+001	-4,603554e-010
-9,999999999999969e-002	1,000000e+001	-3,081964e-010
-4,999999999999968e-002	1,000000e+001	-1,455668e-010
3,191891195797325e-016	1,000000e+001	8,306639e-011
5,000000000000032e-002	1,000000e+001	7,420085e-010
1,000000000000003e-001	1,000000e+001	4,260100e-009
1,500000000000003e-001	1,000000e+001	2,697174e-008
2,000000000000003e-001	9,999999e+000	1,792312e-007
2,500000000000003e-001	9,999996e+000	1,208305e-006
3,000000000000003e-001	9,999972e+000	8,177966e-006
3,500000000000003e-001	9,999816e+000	5,531101e-005
4,000000000000003e-001	9,998775e+000	3,690558e-004
4,500000000000003e-001	9,992462e+000	2,268765e-003
5,000000000000003e-001	9,966068e+000	1,021222e-002
5,500000000000004e-001	9,907319e+000	2,789201e-002
6,000000000000004e-001	9,824808e+000	5,272248e-002
6,500000000000005e-001	9,729158e+000	8,150662e-002
7,000000000000005e-001	9,626610e+000	1,123671e-001
7,500000000000006e-001	9,519132e+000	1,447111e-001
8,000000000000006e-001	9,408809e+000	1,779115e-001
8,500000000000006e-001	9,296575e+000	2,116877e-001
9,000000000000007e-001	9,182922e+000	2,458910e-001
9,500000000000007e-001	9,068207e+000	2,804146e-001
1,000000000000001e+000	8,952682e+000	3,151820e-001
1,050000000000001e+000	8,836533e+000	3,501381e-001
1,100000000000001e+000	8,719894e+000	3,852419e-001
1,150000000000001e+000	8,602870e+000	4,204621e-001
1,200000000000001e+000	8,485542e+000	4,557742e-001
1,250000000000001e+000	8,367975e+000	4,911590e-001
1,300000000000001e+000	8,250220e+000	5,266007e-001
1,350000000000001e+000	8,132319e+000	5,620866e-001
1,400000000000001e+000	8,014310e+000	5,976060e-001
1,450000000000001e+000	7,896221e+000	6,331500e-001
1,500000000000001e+000	7,778076e+000	6,687110e-001
1,550000000000001e+000	7,659898e+000	7,042826e-001
1,600000000000001e+000	7,541705e+000	7,398593e-001
1,650000000000001e+000	7,423513e+000	7,754362e-001
1,700000000000001e+000	7,305337e+000	8,110091e-001
1,750000000000001e+000	7,187188e+000	8,465742e-001
1,800000000000001e+000	7,069078e+000	8,821283e-001
1,850000000000001e+000	6,951016e+000	9,176683e-001
1,900000000000002e+000	6,833011e+000	9,531918e-001
1,950000000000002e+000	6,715071e+000	9,886962e-001
2,000000000000001e+000	6,597203e+000	1,024180e+000
2,050000000000001e+000	6,479414e+000	1,059640e+000
2,100000000000001e+000	6,361710e+000	1,095075e+000
2,150000000000001e+000	6,244094e+000	1,130484e+000
2,200000000000001e+000	6,126575e+000	1,165865e+000
2,250000000000000e+000	6,009154e+000	1,201217e+000
2,300000000000000e+000	5,891837e+000	1,236538e+000
2,350000000000000e+000	5,774628e+000	1,271827e+000
2,400000000000000e+000	5,657529e+000	1,307083e+000
2,450000000000000e+000	5,540545e+000	1,342306e+000
2,500000000000000e+000	5,423679e+000	1,377494e+000
2,549999999999999e+000	5,306934e+000	1,412646e+000
2,599999999999999e+000	5,190312e+000	1,447761e+000
2,649999999999999e+000	5,073816e+000	1,482839e+000
2,699999999999999e+000	4,957449e+000	1,517879e+000
2,749999999999999e+000	4,841213e+000	1,552880e+000
2,799999999999999e+000	4,725111e+000	1,587842e+000
2,849999999999998e+000	4,609143e+000	1,622764e+000
2,899999999999998e+000	4,493312e+000	1,657644e+000
2,949999999999998e+000	4,377622e+000	1,692484e+000
2,999999999999998e+000	4,262072e+000	1,727282e+000
3,049999999999998e+000	4,146665e+000	1,762037e+000
3,099999999999997e+000	4,031402e+000	1,796749e+000
3,149999999999997e+000	3,916286e+000	1,831419e+000
3,199999999999997e+000	3,801317e+000	1,866044e+000
3,249999999999997e+000	3,686498e+000	1,900625e+000
3,299999999999997e+000	3,571829e+000	1,935161e+000
3,349999999999997e+000	3,457313e+000	1,969652e+000
3,399999999999996e+000	3,342949e+000	2,004098e+000
3,449999999999996e+000	3,228741e+000	2,038497e+000
3,499999999999996e+000	3,114688e+000	2,072851e+000
3,549999999999996e+000	3,000793e+000	2,107157e+000
3,599999999999996e+000	2,887056e+000	2,141417e+000
3,649999999999996e+000	2,773479e+000	2,175630e+000
3,699999999999995e+000	2,660078e+000	2,209790e+000
3,749999999999995e+000	2,548698e+000	2,243349e+000
3,799999999999995e+000	2,477729e+000	2,264895e+000
3,849999999999995e+000	2,454598e+000	2,272221e+000
3,899999999999995e+000	2,440464e+000	2,276873e+000
3,949999999999994e+000	2,433729e+000	2,279325e+000
3,999999999999994e+000	2,429634e+000	2,280993e+000
4,049999999999995e+000	2,425522e+000	2,282665e+000
4,099999999999994e+000	2,422043e+000	2,284150e+000
4,149999999999994e+000	2,419151e+000	2,285460e+000
4,199999999999994e+000	2,416688e+000	2,286642e+000
4,249999999999994e+000	2,414553e+000	2,287727e+000
4,299999999999994e+000	2,412679e+000	2,288734e+000
4,349999999999993e+000	2,411017e+000	2,289678e+000
4,399999999999993e+000	2,409532e+000	2,290570e+000
4,449999999999993e+000	2,408195e+000	2,291417e+000
4,499999999999993e+000	2,406985e+000	2,292227e+000
4,549999999999993e+000	2,405885e+000	2,293005e+000
4,599999999999993e+000	2,404879e+000	2,293753e+000
4,649999999999992e+000	2,403958e+000	2,294477e+000
4,699999999999992e+000	2,403111e+000	2,295180e+000
4,749999999999992e+000	2,402330e+000	2,295862e+000
4,799999999999992e+000	2,401608e+000	2,296526e+000
4,849999999999992e+000	2,400941e+000	2,297175e+000
4,899999999999992e+000	2,400322e+000	2,297809e+000
4,949999999999991e+000	2,399748e+000	2,298430e+000
4,999999999999991e+000	2,399214e+000	2,299039e+000
5,049999999999991e+000	2,398717e+000	2,299636e+000
5,099999999999991e+000	2,398255e+000	2,300224e+000
5,149999999999991e+000	2,397825e+000	2,300802e+000
5,199999999999990e+000	2,397424e+000	2,301371e+000
5,249999999999990e+000	2,397050e+000	2,301933e+000
5,299999999999990e+000	2,396703e+000	2,302486e+000
5,349999999999990e+000	2,396378e+000	2,303033e+000
5,399999999999990e+000	2,396076e+000	2,303572e+000
5,449999999999990e+000	2,395796e+000	2,304106e+000
5,499999999999989e+000	2,395534e+000	2,304634e+000
5,549999999999989e+000	2,395292e+000	2,305156e+000
5,599999999999989e+000	2,395066e+000	2,305673e+000
5,649999999999989e+000	2,394858e+000	2,306185e+000
5,699999999999989e+000	2,394665e+000	2,306693e+000
5,749999999999989e+000	2,394486e+000	2,307196e+000
5,799999999999988e+000	2,394322e+000	2,307695e+000
5,849999999999988e+000	2,394171e+000	2,308190e+000
5,899999999999988e+000	2,394033e+000	2,308681e+000
5,949999999999988e+000	2,393908e+000	2,309169e+000
6,000000000000000e+000	2,393793e+000	2,309653e+000

