Circuit: * Z:\home\mainster\CODES_local\LTSpice_projects\koblitz_EAS_klausuren\Draft3.asc

.step temp=27°C
Direct Newton iteration for .op point succeeded.
Semiconductor Device Operating Points:
                        --- Bipolar Transistors ---
Name:       q2          q1
Model:      nx2         nx
Ib:       9.49e-06    5.33e-06
Ic:       1.90e-03    1.07e-03
Vbe:      5.54e-01    5.99e-01
Vbc:     -4.17e+00   -4.24e+00
Vce:      4.72e+00    4.84e+00
BetaDC:   2.00e+02    2.00e+02
Gm:       7.34e-02    4.12e-02
Rpi:      2.73e+03    4.85e+03
Rx:       0.00e+00    0.00e+00
Ro:       2.50e+80    5.03e+82
Cbe:      0.00e+00    0.00e+00
Cbc:      5.38e-13    5.35e-13
Cjs:      0.00e+00    0.00e+00
BetaAC:   2.00e+02    2.00e+02
Cbx:      0.00e+00    0.00e+00
Ft:       2.17e+10    1.23e+10


.step temp=80°C

Date: Wed Feb 18 16:45:23 2015
Total elapsed time: 5.205 seconds.

tnom = 27
temp = 80
method = trap
totiter = 9
traniter = 0
tranpoints = 0
accept = 0
rejected = 0
matrix size = 8
fillins = 0
solver = Normal
Matrix Compiler1: 478 bytes object code size
Matrix Compiler2: 676 bytes object code size

