Circuit: * Z:\home\mainster\CODES_local\LTSpice_projects\galvoscanner\I_sink_source_v1.asc

WARNING: Less than two connections to node N001.  This node is used by V3.
Ignoring empty pin current: Ix(u1:11)
Ignoring empty pin current: Ix(u2:11)
.step ri=220
Direct Newton iteration for .op point succeeded.
Semiconductor Device Operating Points:
                        --- Diodes ---
Name:    d:u4:1      d:u3:1      d:u2:3      d:u2:4      d:u2:2
Model:  u4:diode    u3:diode     u2:dcl2    u2:dclamp   u2:dclamp
Id:     -2.68e-11   -2.80e-11   -1.27e-11   -6.78e-09    5.57e-03
Vd:     -2.67e+01   -2.80e+01   -1.27e+01   -1.26e+00    5.47e-01
Req:     1.00e+12    1.00e+12    1.00e+12    1.00e+12    7.21e+00
CAP:     0.00e+00    0.00e+00    0.00e+00    3.33e-11    7.05e-09

Name:    d:u2:1      d:u1:3      d:u1:4      d:u1:2      d:u1:1
Model:  u2:dclamp    u1:dcl2    u1:dclamp   u1:dclamp   u1:dclamp
Id:     -6.77e-09   -1.27e-11   -6.78e-09    6.00e-03   -6.77e-09
Vd:     -2.59e-01   -1.27e+01   -1.26e+00    5.50e-01   -2.57e-01
Req:     3.77e+09    1.00e+12    1.00e+12    6.70e+00    3.52e+09
CAP:     4.10e-11    0.00e+00    3.33e-11    7.59e-09    4.10e-11

                        --- Bipolar Transistors ---
Name:      q:u4:1       q:u3:1
Model:  u4:pbss4350z u3:pbss4350z
Ib:       3.03e-06     3.01e-06
Ic:       9.97e-04     9.97e-04
Vbe:      5.63e-01     5.63e-01
Vbc:     -2.67e+01    -2.80e+01
Vce:      2.73e+01     2.85e+01
BetaDC:   3.29e+02     3.32e+02
Gm:       3.96e-02     3.97e-02
Rpi:      8.32e+03     8.37e+03
Rx:       9.55e+00     9.56e+00
Ro:       1.77e+05     1.78e+05
Cbe:      6.71e-10     6.71e-10
Cbc:      1.16e-11     1.13e-11
Cjs:      0.00e+00     0.00e+00
BetaAC:   3.30e+02     3.32e+02
Cbx:      0.00e+00     0.00e+00
Ft:       9.25e+06     9.26e+06


.step ri=1000

Date: Mon Dec 22 09:30:01 2014
Total elapsed time: 3.841 seconds.

tnom = 27
temp = 80
method = trap
totiter = 12
traniter = 0
tranpoints = 0
accept = 0
rejected = 0
matrix size = 48
fillins = 31
solver = Normal
Matrix Compiler1: 3.99 KB object code size
Matrix Compiler2: 4.35 KB object code size

