frequency	V(inoise)	V(onoise)
1.000000000000000e-001	1.132826e-006	1.724321e-008
1.023292992280754e-001	1.107186e-006	1.724144e-008
1.047128548050900e-001	1.082134e-006	1.723960e-008
1.071519305237607e-001	1.057656e-006	1.723767e-008
1.096478196143185e-001	1.033738e-006	1.723564e-008
1.122018454301964e-001	1.010368e-006	1.723353e-008
1.148153621496883e-001	9.875340e-007	1.723132e-008
1.174897554939530e-001	9.652235e-007	1.722901e-008
1.202264434617413e-001	9.434248e-007	1.722659e-008
1.230268770812382e-001	9.221262e-007	1.722406e-008
1.258925411794167e-001	9.013166e-007	1.722141e-008
1.288249551693134e-001	8.809848e-007	1.721865e-008
1.318256738556407e-001	8.611200e-007	1.721575e-008
1.348962882591653e-001	8.417118e-007	1.721273e-008
1.380384264602884e-001	8.227498e-007	1.720956e-008
1.412537544622754e-001	8.042240e-007	1.720626e-008
1.445439770745927e-001	7.861246e-007	1.720280e-008
1.479108388168207e-001	7.684420e-007	1.719918e-008
1.513561248436207e-001	7.511667e-007	1.719541e-008
1.548816618912480e-001	7.342896e-007	1.719146e-008
1.584893192461112e-001	7.178018e-007	1.718733e-008
1.621810097358929e-001	7.016944e-007	1.718302e-008
1.659586907437559e-001	6.859591e-007	1.717851e-008
1.698243652461743e-001	6.705874e-007	1.717380e-008
1.737800828749374e-001	6.555711e-007	1.716888e-008
1.778279410038921e-001	6.409023e-007	1.716375e-008
1.819700858609982e-001	6.265733e-007	1.715838e-008
1.862087136662866e-001	6.125763e-007	1.715278e-008
1.905460717963245e-001	5.989041e-007	1.714692e-008
1.949844599758043e-001	5.855492e-007	1.714081e-008
1.995262314968878e-001	5.725047e-007	1.713443e-008
2.041737944669527e-001	5.597635e-007	1.712778e-008
2.089296130854037e-001	5.473191e-007	1.712083e-008
2.137962089502230e-001	5.351646e-007	1.711357e-008
2.187761623949550e-001	5.232937e-007	1.710601e-008
2.238721138568337e-001	5.117001e-007	1.709812e-008
2.290867652767770e-001	5.003776e-007	1.708989e-008
2.344228815319919e-001	4.893201e-007	1.708130e-008
2.398832919019487e-001	4.785219e-007	1.707235e-008
2.454708915685027e-001	4.679771e-007	1.706302e-008
2.511886431509577e-001	4.576802e-007	1.705330e-008
2.570395782768861e-001	4.476256e-007	1.704317e-008
2.630267991895379e-001	4.378082e-007	1.703261e-008
2.691534803926912e-001	4.282224e-007	1.702162e-008
2.754228703338163e-001	4.188634e-007	1.701017e-008
2.818382931264450e-001	4.097261e-007	1.699826e-008
2.884031503126602e-001	4.008057e-007	1.698586e-008
2.951209226666382e-001	3.920973e-007	1.697295e-008
3.019951720402012e-001	3.835964e-007	1.695953e-008
3.090295432513586e-001	3.752983e-007	1.694558e-008
3.162277660168375e-001	3.671987e-007	1.693107e-008
3.235936569296278e-001	3.592933e-007	1.691599e-008
3.311311214825907e-001	3.515777e-007	1.690032e-008
3.388441561392021e-001	3.440480e-007	1.688405e-008
3.467368504525312e-001	3.366999e-007	1.686716e-008
3.548133892335750e-001	3.295297e-007	1.684963e-008
3.630780547701009e-001	3.225334e-007	1.683145e-008
3.715352290971720e-001	3.157073e-007	1.681259e-008
3.801893963205607e-001	3.090477e-007	1.679304e-008
3.890451449942800e-001	3.025511e-007	1.677279e-008
3.981071705534967e-001	2.962138e-007	1.675181e-008
4.073802778041121e-001	2.900326e-007	1.673009e-008
4.168693834703348e-001	2.840040e-007	1.670762e-008
4.265795188015920e-001	2.781247e-007	1.668437e-008
4.365158322401653e-001	2.723916e-007	1.666035e-008
4.466835921509624e-001	2.668016e-007	1.663552e-008
4.570881896148742e-001	2.613516e-007	1.660989e-008
4.677351412871974e-001	2.560386e-007	1.658342e-008
4.786300923226375e-001	2.508597e-007	1.655613e-008
4.897788193684454e-001	2.458121e-007	1.652799e-008
5.011872336272715e-001	2.408929e-007	1.649900e-008
5.128613839913641e-001	2.360995e-007	1.646915e-008
5.248074602497718e-001	2.314292e-007	1.643844e-008
5.370317963702519e-001	2.268793e-007	1.640685e-008
5.495408738576236e-001	2.224474e-007	1.637440e-008
5.623413251903481e-001	2.181308e-007	1.634106e-008
5.754399373371559e-001	2.139273e-007	1.630686e-008
5.888436553555879e-001	2.098343e-007	1.627178e-008
6.025595860743567e-001	2.058497e-007	1.623584e-008
6.165950018614811e-001	2.019709e-007	1.619904e-008
6.309573444801921e-001	1.981959e-007	1.616139e-008
6.456542290346544e-001	1.945225e-007	1.612290e-008
6.606934480075949e-001	1.909484e-007	1.608359e-008
6.760829753919806e-001	1.874716e-007	1.604346e-008
6.918309709189353e-001	1.840899e-007	1.600255e-008
7.079457843841367e-001	1.808015e-007	1.596086e-008
7.244359600749888e-001	1.776042e-007	1.591843e-008
7.413102413009162e-001	1.744961e-007	1.587527e-008
7.585775750291823e-001	1.714753e-007	1.583142e-008
7.762471166286903e-001	1.685400e-007	1.578691e-008
7.943282347242799e-001	1.656882e-007	1.574176e-008
8.128305161640976e-001	1.629182e-007	1.569602e-008
8.317637711026693e-001	1.602282e-007	1.564971e-008
8.511380382023747e-001	1.576164e-007	1.560289e-008
8.709635899560788e-001	1.550811e-007	1.555559e-008
8.912509381337437e-001	1.526205e-007	1.550784e-008
9.120108393559078e-001	1.502331e-007	1.545971e-008
9.332543007969890e-001	1.479172e-007	1.541123e-008
9.549925860214339e-001	1.456712e-007	1.536245e-008
9.772372209558086e-001	1.434934e-007	1.531342e-008
9.999999999999978e-001	1.413823e-007	1.526418e-008
1.023292992280752e+000	1.393364e-007	1.521480e-008
1.047128548050897e+000	1.373542e-007	1.516532e-008
1.071519305237604e+000	1.354340e-007	1.511579e-008
1.096478196143182e+000	1.335745e-007	1.506626e-008
1.122018454301961e+000	1.317743e-007	1.501679e-008
1.148153621496880e+000	1.300318e-007	1.496743e-008
1.174897554939527e+000	1.283456e-007	1.491822e-008
1.202264434617410e+000	1.267143e-007	1.486922e-008
1.230268770812378e+000	1.251367e-007	1.482048e-008
1.258925411794164e+000	1.236112e-007	1.477205e-008
1.288249551693131e+000	1.221367e-007	1.472397e-008
1.318256738556404e+000	1.207116e-007	1.467629e-008
1.348962882591650e+000	1.193349e-007	1.462905e-008
1.380384264602881e+000	1.180051e-007	1.458229e-008
1.412537544622750e+000	1.167210e-007	1.453607e-008
1.445439770745923e+000	1.154813e-007	1.449040e-008
1.479108388168203e+000	1.142850e-007	1.444534e-008
1.513561248436204e+000	1.131306e-007	1.440092e-008
1.548816618912477e+000	1.120171e-007	1.435716e-008
1.584893192461109e+000	1.109433e-007	1.431410e-008
1.621810097358925e+000	1.099080e-007	1.427177e-008
1.659586907437555e+000	1.089102e-007	1.423019e-008
1.698243652461739e+000	1.079486e-007	1.418938e-008
1.737800828749370e+000	1.070222e-007	1.414936e-008
1.778279410038917e+000	1.061300e-007	1.411015e-008
1.819700858609977e+000	1.052709e-007	1.407177e-008
1.862087136662861e+000	1.044439e-007	1.403423e-008
1.905460717963241e+000	1.036479e-007	1.399754e-008
1.949844599758039e+000	1.028820e-007	1.396171e-008
1.995262314968873e+000	1.021452e-007	1.392674e-008
2.041737944669523e+000	1.014366e-007	1.389264e-008
2.089296130854033e+000	1.007552e-007	1.385942e-008
2.137962089502225e+000	1.001001e-007	1.382707e-008
2.187761623949545e+000	9.947052e-008	1.379559e-008
2.238721138568332e+000	9.886552e-008	1.376498e-008
2.290867652767766e+000	9.828427e-008	1.373523e-008
2.344228815319914e+000	9.772596e-008	1.370634e-008
2.398832919019482e+000	9.718978e-008	1.367830e-008
2.454708915685022e+000	9.667496e-008	1.365111e-008
2.511886431509572e+000	9.618073e-008	1.362474e-008
2.570395782768855e+000	9.570637e-008	1.359920e-008
2.630267991895373e+000	9.525115e-008	1.357446e-008
2.691534803926906e+000	9.481438e-008	1.355052e-008
2.754228703338157e+000	9.439538e-008	1.352736e-008
2.818382931264444e+000	9.399349e-008	1.350497e-008
2.884031503126595e+000	9.360809e-008	1.348334e-008
2.951209226666375e+000	9.323853e-008	1.346244e-008
3.019951720402005e+000	9.288425e-008	1.344226e-008
3.090295432513579e+000	9.254464e-008	1.342278e-008
3.162277660168367e+000	9.221915e-008	1.340400e-008
3.235936569296270e+000	9.190722e-008	1.338588e-008
3.311311214825898e+000	9.160836e-008	1.336842e-008
3.388441561392012e+000	9.132202e-008	1.335159e-008
3.467368504525302e+000	9.104774e-008	1.333538e-008
3.548133892335740e+000	9.078502e-008	1.331978e-008
3.630780547700999e+000	9.053342e-008	1.330476e-008
3.715352290971711e+000	9.029249e-008	1.329030e-008
3.801893963205597e+000	9.006180e-008	1.327640e-008
3.890451449942790e+000	8.984093e-008	1.326303e-008
3.981071705534956e+000	8.962950e-008	1.325018e-008
4.073802778041110e+000	8.942713e-008	1.323782e-008
4.168693834703337e+000	8.923342e-008	1.322595e-008
4.265795188015909e+000	8.904805e-008	1.321455e-008
4.365158322401642e+000	8.887066e-008	1.320360e-008
4.466835921509612e+000	8.870092e-008	1.319309e-008
4.570881896148731e+000	8.853851e-008	1.318299e-008
4.677351412871962e+000	8.838314e-008	1.317331e-008
4.786300923226363e+000	8.823451e-008	1.316401e-008
4.897788193684440e+000	8.809233e-008	1.315510e-008
5.011872336272701e+000	8.795633e-008	1.314655e-008
5.128613839913625e+000	8.782626e-008	1.313835e-008
5.248074602497702e+000	8.770186e-008	1.313048e-008
5.370317963702503e+000	8.758290e-008	1.312295e-008
5.495408738576220e+000	8.746914e-008	1.311572e-008
5.623413251903465e+000	8.736036e-008	1.310880e-008
5.754399373371542e+000	8.725635e-008	1.310217e-008
5.888436553555861e+000	8.715691e-008	1.309581e-008
6.025595860743549e+000	8.706184e-008	1.308972e-008
6.165950018614792e+000	8.697094e-008	1.308389e-008
6.309573444801902e+000	8.688405e-008	1.307831e-008
6.456542290346524e+000	8.680099e-008	1.307296e-008
6.606934480075928e+000	8.672159e-008	1.306785e-008
6.760829753919785e+000	8.664571e-008	1.306295e-008
6.918309709189331e+000	8.657317e-008	1.305826e-008
7.079457843841344e+000	8.650384e-008	1.305377e-008
7.244359600749864e+000	8.643757e-008	1.304947e-008
7.413102413009137e+000	8.637425e-008	1.304536e-008
7.585775750291798e+000	8.631373e-008	1.304142e-008
7.762471166286877e+000	8.625589e-008	1.303766e-008
7.943282347242774e+000	8.620062e-008	1.303406e-008
8.128305161640951e+000	8.614781e-008	1.303062e-008
8.317637711026666e+000	8.609734e-008	1.302732e-008
8.511380382023720e+000	8.604912e-008	1.302417e-008
8.709635899560761e+000	8.600304e-008	1.302115e-008
8.912509381337408e+000	8.595902e-008	1.301827e-008
9.120108393559049e+000	8.591694e-008	1.301552e-008
9.332543007969861e+000	8.587676e-008	1.301288e-008
9.549925860214309e+000	8.583835e-008	1.301036e-008
9.772372209558055e+000	8.580167e-008	1.300795e-008
9.999999999999947e+000	8.576661e-008	1.300565e-008
1.023292992280749e+001	8.573312e-008	1.300344e-008
1.047128548050894e+001	8.570113e-008	1.300134e-008
1.071519305237601e+001	8.567056e-008	1.299933e-008
1.096478196143179e+001	8.564137e-008	1.299740e-008
1.122018454301957e+001	8.561347e-008	1.299556e-008
1.148153621496876e+001	8.558683e-008	1.299380e-008
1.174897554939523e+001	8.556137e-008	1.299212e-008
1.202264434617406e+001	8.553705e-008	1.299052e-008
1.230268770812375e+001	8.551383e-008	1.298898e-008
1.258925411794160e+001	8.549164e-008	1.298752e-008
1.288249551693127e+001	8.547044e-008	1.298612e-008
1.318256738556400e+001	8.545019e-008	1.298478e-008
1.348962882591646e+001	8.543085e-008	1.298350e-008
1.380384264602877e+001	8.541237e-008	1.298227e-008
1.412537544622746e+001	8.539473e-008	1.298110e-008
1.445439770745919e+001	8.537787e-008	1.297999e-008
1.479108388168199e+001	8.536178e-008	1.297892e-008
1.513561248436199e+001	8.534639e-008	1.297790e-008
1.548816618912472e+001	8.533171e-008	1.297693e-008
1.584893192461104e+001	8.531768e-008	1.297600e-008
1.621810097358920e+001	8.530428e-008	1.297511e-008
1.659586907437550e+001	8.529148e-008	1.297426e-008
1.698243652461734e+001	8.527925e-008	1.297345e-008
1.737800828749365e+001	8.526757e-008	1.297267e-008
1.778279410038912e+001	8.525642e-008	1.297193e-008
1.819700858609972e+001	8.524577e-008	1.297122e-008
1.862087136662855e+001	8.523560e-008	1.297055e-008
1.905460717963235e+001	8.522588e-008	1.296990e-008
1.949844599758032e+001	8.521660e-008	1.296928e-008
1.995262314968866e+001	8.520774e-008	1.296870e-008
2.041737944669515e+001	8.519927e-008	1.296813e-008
2.089296130854025e+001	8.519118e-008	1.296759e-008
2.137962089502218e+001	8.518346e-008	1.296708e-008
2.187761623949537e+001	8.517608e-008	1.296659e-008
2.238721138568324e+001	8.516904e-008	1.296612e-008
2.290867652767757e+001	8.516231e-008	1.296567e-008
2.344228815319906e+001	8.515589e-008	1.296525e-008
2.398832919019474e+001	8.514975e-008	1.296484e-008
2.454708915685013e+001	8.514389e-008	1.296445e-008
2.511886431509563e+001	8.513830e-008	1.296408e-008
2.570395782768846e+001	8.513295e-008	1.296372e-008
2.630267991895363e+001	8.512784e-008	1.296338e-008
2.691534803926897e+001	8.512297e-008	1.296305e-008
2.754228703338147e+001	8.511831e-008	1.296274e-008
2.818382931264434e+001	8.511386e-008	1.296245e-008
2.884031503126585e+001	8.510961e-008	1.296217e-008
2.951209226666364e+001	8.510556e-008	1.296189e-008
3.019951720401994e+001	8.510168e-008	1.296164e-008
3.090295432513568e+001	8.509799e-008	1.296139e-008
3.162277660168356e+001	8.509445e-008	1.296115e-008
3.235936569296258e+001	8.509107e-008	1.296093e-008
3.311311214825886e+001	8.508785e-008	1.296072e-008
3.388441561392000e+001	8.508478e-008	1.296051e-008
3.467368504525290e+001	8.508184e-008	1.296031e-008
3.548133892335728e+001	8.507903e-008	1.296013e-008
3.630780547700986e+001	8.507634e-008	1.295995e-008
3.715352290971697e+001	8.507379e-008	1.295978e-008
3.801893963205583e+001	8.507134e-008	1.295961e-008
3.890451449942776e+001	8.506900e-008	1.295946e-008
3.981071705534941e+001	8.506677e-008	1.295931e-008
4.073802778041095e+001	8.506465e-008	1.295917e-008
4.168693834703321e+001	8.506261e-008	1.295903e-008
4.265795188015893e+001	8.506067e-008	1.295890e-008
4.365158322401625e+001	8.505882e-008	1.295878e-008
4.466835921509595e+001	8.505704e-008	1.295866e-008
4.570881896148713e+001	8.505535e-008	1.295855e-008
4.677351412871944e+001	8.505373e-008	1.295844e-008
4.786300923226344e+001	8.505219e-008	1.295834e-008
4.897788193684422e+001	8.505071e-008	1.295824e-008
5.011872336272682e+001	8.504931e-008	1.295814e-008
5.128613839913606e+001	8.504797e-008	1.295805e-008
5.248074602497682e+001	8.504668e-008	1.295797e-008
5.370317963702482e+001	8.504546e-008	1.295789e-008
5.495408738576199e+001	8.504428e-008	1.295781e-008
5.623413251903443e+001	8.504317e-008	1.295773e-008
5.754399373371521e+001	8.504210e-008	1.295766e-008
5.888436553555840e+001	8.504108e-008	1.295759e-008
6.025595860743526e+001	8.504011e-008	1.295753e-008
6.165950018614769e+001	8.503918e-008	1.295747e-008
6.309573444801878e+001	8.503829e-008	1.295741e-008
6.456542290346499e+001	8.503743e-008	1.295735e-008
6.606934480075903e+001	8.503662e-008	1.295730e-008
6.760829753919759e+001	8.503586e-008	1.295724e-008
6.918309709189305e+001	8.503512e-008	1.295720e-008
7.079457843841317e+001	8.503441e-008	1.295715e-008
7.244359600749837e+001	8.503373e-008	1.295710e-008
7.413102413009111e+001	8.503309e-008	1.295706e-008
7.585775750291771e+001	8.503248e-008	1.295702e-008
7.762471166286849e+001	8.503189e-008	1.295698e-008
7.943282347242744e+001	8.503133e-008	1.295694e-008
8.128305161640920e+001	8.503080e-008	1.295690e-008
8.317637711026636e+001	8.503029e-008	1.295687e-008
8.511380382023688e+001	8.502980e-008	1.295684e-008
8.709635899560728e+001	8.502933e-008	1.295681e-008
8.912509381337374e+001	8.502889e-008	1.295678e-008
9.120108393559013e+001	8.502846e-008	1.295675e-008
9.332543007969824e+001	8.502806e-008	1.295672e-008
9.549925860214270e+001	8.502766e-008	1.295669e-008
9.772372209558016e+001	8.502730e-008	1.295667e-008
9.999999999999906e+001	8.502694e-008	1.295664e-008
1.023292992280745e+002	8.502661e-008	1.295662e-008
1.047128548050890e+002	8.502628e-008	1.295660e-008
1.071519305237596e+002	8.502597e-008	1.295658e-008
1.096478196143175e+002	8.502568e-008	1.295656e-008
1.122018454301953e+002	8.502540e-008	1.295654e-008
1.148153621496872e+002	8.502513e-008	1.295652e-008
1.174897554939518e+002	8.502487e-008	1.295650e-008
1.202264434617402e+002	8.502463e-008	1.295649e-008
1.230268770812370e+002	8.502440e-008	1.295647e-008
1.258925411794155e+002	8.502417e-008	1.295645e-008
1.288249551693122e+002	8.502396e-008	1.295644e-008
1.318256738556394e+002	8.502376e-008	1.295643e-008
1.348962882591640e+002	8.502356e-008	1.295641e-008
1.380384264602871e+002	8.502337e-008	1.295640e-008
1.412537544622740e+002	8.502320e-008	1.295639e-008
1.445439770745913e+002	8.502303e-008	1.295637e-008
1.479108388168193e+002	8.502287e-008	1.295636e-008
1.513561248436193e+002	8.502271e-008	1.295635e-008
1.548816618912466e+002	8.502256e-008	1.295634e-008
1.584893192461097e+002	8.502242e-008	1.295633e-008
1.621810097358913e+002	8.502229e-008	1.295632e-008
1.659586907437543e+002	8.502216e-008	1.295631e-008
1.698243652461727e+002	8.502204e-008	1.295630e-008
1.737800828749357e+002	8.502192e-008	1.295629e-008
1.778279410038904e+002	8.502181e-008	1.295628e-008
1.819700858609964e+002	8.502170e-008	1.295627e-008
1.862087136662848e+002	8.502160e-008	1.295626e-008
1.905460717963227e+002	8.502150e-008	1.295626e-008
1.949844599758025e+002	8.502141e-008	1.295625e-008
1.995262314968859e+002	8.502132e-008	1.295624e-008
2.041737944669508e+002	8.502123e-008	1.295623e-008
2.089296130854017e+002	8.502116e-008	1.295623e-008
2.137962089502209e+002	8.502108e-008	1.295622e-008
2.187761623949529e+002	8.502100e-008	1.295621e-008
2.238721138568316e+002	8.502093e-008	1.295620e-008
2.290867652767749e+002	8.502087e-008	1.295620e-008
2.344228815319897e+002	8.502080e-008	1.295619e-008
2.398832919019465e+002	8.502074e-008	1.295619e-008
2.454708915685004e+002	8.502068e-008	1.295618e-008
2.511886431509553e+002	8.502062e-008	1.295617e-008
2.570395782768836e+002	8.502057e-008	1.295617e-008
2.630267991895354e+002	8.502052e-008	1.295616e-008
2.691534803926887e+002	8.502047e-008	1.295615e-008
2.754228703338137e+002	8.502042e-008	1.295615e-008
2.818382931264423e+002	8.502037e-008	1.295614e-008
2.884031503126574e+002	8.502033e-008	1.295613e-008
2.951209226666354e+002	8.502029e-008	1.295613e-008
3.019951720401983e+002	8.502025e-008	1.295612e-008
3.090295432513557e+002	8.502022e-008	1.295611e-008
3.162277660168345e+002	8.502018e-008	1.295611e-008
3.235936569296247e+002	8.502015e-008	1.295610e-008
3.311311214825875e+002	8.502011e-008	1.295609e-008
3.388441561391988e+002	8.502008e-008	1.295609e-008
3.467368504525278e+002	8.502005e-008	1.295608e-008
3.548133892335715e+002	8.502003e-008	1.295607e-008
3.630780547700973e+002	8.502000e-008	1.295606e-008
3.715352290971684e+002	8.501997e-008	1.295606e-008
3.801893963205569e+002	8.501994e-008	1.295605e-008
3.890451449942762e+002	8.501992e-008	1.295604e-008
3.981071705534927e+002	8.501990e-008	1.295603e-008
4.073802778041081e+002	8.501988e-008	1.295602e-008
4.168693834703306e+002	8.501986e-008	1.295601e-008
4.265795188015877e+002	8.501983e-008	1.295601e-008
4.365158322401609e+002	8.501981e-008	1.295600e-008
4.466835921509579e+002	8.501980e-008	1.295599e-008
4.570881896148697e+002	8.501978e-008	1.295598e-008
4.677351412871927e+002	8.501976e-008	1.295597e-008
4.786300923226327e+002	8.501974e-008	1.295595e-008
4.897788193684405e+002	8.501973e-008	1.295594e-008
5.011872336272664e+002	8.501971e-008	1.295593e-008
5.128613839913588e+002	8.501970e-008	1.295592e-008
5.248074602497665e+002	8.501969e-008	1.295591e-008
5.370317963702464e+002	8.501967e-008	1.295589e-008
5.495408738576181e+002	8.501966e-008	1.295588e-008
5.623413251903425e+002	8.501965e-008	1.295586e-008
5.754399373371501e+002	8.501964e-008	1.295585e-008
5.888436553555820e+002	8.501962e-008	1.295583e-008
6.025595860743506e+002	8.501961e-008	1.295582e-008
6.165950018614748e+002	8.501960e-008	1.295580e-008
6.309573444801856e+002	8.501959e-008	1.295578e-008
6.456542290346476e+002	8.501958e-008	1.295576e-008
6.606934480075879e+002	8.501957e-008	1.295574e-008
6.760829753919735e+002	8.501956e-008	1.295572e-008
