frequency	V(inoise)	V(onoise)
1.000000000000000e-001	7.477061e-007	7.467923e-008
1.023292992280754e-001	7.306862e-007	7.466168e-008
1.047128548050900e-001	7.140538e-007	7.464331e-008
1.071519305237607e-001	6.977999e-007	7.462410e-008
1.096478196143185e-001	6.819161e-007	7.460400e-008
1.122018454301964e-001	6.663938e-007	7.458296e-008
1.148153621496883e-001	6.512248e-007	7.456095e-008
1.174897554939530e-001	6.364011e-007	7.453792e-008
1.202264434617413e-001	6.219149e-007	7.451384e-008
1.230268770812382e-001	6.077584e-007	7.448865e-008
1.258925411794167e-001	5.939241e-007	7.446229e-008
1.288249551693134e-001	5.804047e-007	7.443472e-008
1.318256738556407e-001	5.671931e-007	7.440588e-008
1.348962882591653e-001	5.542822e-007	7.437573e-008
1.380384264602884e-001	5.416652e-007	7.434419e-008
1.412537544622754e-001	5.293354e-007	7.431120e-008
1.445439770745927e-001	5.172863e-007	7.427671e-008
1.479108388168207e-001	5.055114e-007	7.424065e-008
1.513561248436207e-001	4.940046e-007	7.420294e-008
1.548816618912480e-001	4.827596e-007	7.416351e-008
1.584893192461112e-001	4.717707e-007	7.412230e-008
1.621810097358929e-001	4.610318e-007	7.407921e-008
1.659586907437559e-001	4.505375e-007	7.403418e-008
1.698243652461743e-001	4.402820e-007	7.398711e-008
1.737800828749374e-001	4.302599e-007	7.393792e-008
1.778279410038921e-001	4.204661e-007	7.388651e-008
1.819700858609982e-001	4.108951e-007	7.383280e-008
1.862087136662866e-001	4.015420e-007	7.377668e-008
1.905460717963245e-001	3.924017e-007	7.371806e-008
1.949844599758043e-001	3.834696e-007	7.365682e-008
1.995262314968878e-001	3.747408e-007	7.359286e-008
2.041737944669527e-001	3.662106e-007	7.352606e-008
2.089296130854037e-001	3.578747e-007	7.345631e-008
2.137962089502230e-001	3.497284e-007	7.338348e-008
2.187761623949550e-001	3.417676e-007	7.330745e-008
2.238721138568337e-001	3.339881e-007	7.322809e-008
2.290867652767770e-001	3.263856e-007	7.314527e-008
2.344228815319919e-001	3.189561e-007	7.305885e-008
2.398832919019487e-001	3.116958e-007	7.296868e-008
2.454708915685027e-001	3.046007e-007	7.287462e-008
2.511886431509577e-001	2.976672e-007	7.277651e-008
2.570395782768861e-001	2.908914e-007	7.267420e-008
2.630267991895379e-001	2.842699e-007	7.256754e-008
2.691534803926912e-001	2.777992e-007	7.245634e-008
2.754228703338163e-001	2.714757e-007	7.234046e-008
2.818382931264450e-001	2.652961e-007	7.221970e-008
2.884031503126602e-001	2.592573e-007	7.209390e-008
2.951209226666382e-001	2.533558e-007	7.196287e-008
3.019951720402012e-001	2.475888e-007	7.182643e-008
3.090295432513586e-001	2.419530e-007	7.168440e-008
3.162277660168375e-001	2.364454e-007	7.153656e-008
3.235936569296278e-001	2.310633e-007	7.138274e-008
3.311311214825907e-001	2.258036e-007	7.122272e-008
3.388441561392021e-001	2.206637e-007	7.105631e-008
3.467368504525312e-001	2.156408e-007	7.088330e-008
3.548133892335750e-001	2.107322e-007	7.070349e-008
3.630780547701009e-001	2.059354e-007	7.051666e-008
3.715352290971720e-001	2.012477e-007	7.032260e-008
3.801893963205607e-001	1.966667e-007	7.012110e-008
3.890451449942800e-001	1.921901e-007	6.991196e-008
3.981071705534967e-001	1.878153e-007	6.969495e-008
4.073802778041121e-001	1.835401e-007	6.946986e-008
4.168693834703348e-001	1.793622e-007	6.923650e-008
4.265795188015920e-001	1.752794e-007	6.899463e-008
4.365158322401653e-001	1.712896e-007	6.874406e-008
4.466835921509624e-001	1.673906e-007	6.848459e-008
4.570881896148742e-001	1.635803e-007	6.821602e-008
4.677351412871974e-001	1.598567e-007	6.793815e-008
4.786300923226375e-001	1.562180e-007	6.765078e-008
4.897788193684454e-001	1.526620e-007	6.735375e-008
5.011872336272715e-001	1.491870e-007	6.704688e-008
5.128613839913641e-001	1.457911e-007	6.673000e-008
5.248074602497718e-001	1.424725e-007	6.640295e-008
5.370317963702519e-001	1.392294e-007	6.606560e-008
5.495408738576236e-001	1.360602e-007	6.571779e-008
5.623413251903481e-001	1.329630e-007	6.535942e-008
5.754399373371559e-001	1.299364e-007	6.499037e-008
5.888436553555879e-001	1.269787e-007	6.461055e-008
6.025595860743567e-001	1.240883e-007	6.421989e-008
6.165950018614811e-001	1.212637e-007	6.381831e-008
6.309573444801921e-001	1.185034e-007	6.340578e-008
6.456542290346544e-001	1.158060e-007	6.298227e-008
6.606934480075949e-001	1.131699e-007	6.254776e-008
6.760829753919806e-001	1.105938e-007	6.210229e-008
6.918309709189353e-001	1.080764e-007	6.164587e-008
7.079457843841367e-001	1.056163e-007	6.117857e-008
7.244359600749888e-001	1.032122e-007	6.070045e-008
7.413102413009162e-001	1.008628e-007	6.021163e-008
7.585775750291823e-001	9.856686e-008	5.971221e-008
7.762471166286903e-001	9.632321e-008	5.920236e-008
7.943282347242799e-001	9.413062e-008	5.868223e-008
8.128305161640976e-001	9.198795e-008	5.815201e-008
8.317637711026693e-001	8.989404e-008	5.761193e-008
8.511380382023747e-001	8.784781e-008	5.706222e-008
8.709635899560788e-001	8.584815e-008	5.650314e-008
8.912509381337437e-001	8.389401e-008	5.593497e-008
9.120108393559078e-001	8.198435e-008	5.535802e-008
9.332543007969890e-001	8.011816e-008	5.477261e-008
9.549925860214339e-001	7.829444e-008	5.417909e-008
9.772372209558086e-001	7.651224e-008	5.357782e-008
9.999999999999978e-001	7.477061e-008	5.296920e-008
1.023292992280752e+000	7.306863e-008	5.235360e-008
1.047128548050897e+000	7.140538e-008	5.173145e-008
1.071519305237604e+000	6.977999e-008	5.110319e-008
1.096478196143182e+000	6.819161e-008	5.046924e-008
1.122018454301961e+000	6.663938e-008	4.983007e-008
1.148153621496880e+000	6.512248e-008	4.918613e-008
1.174897554939527e+000	6.364011e-008	4.853791e-008
1.202264434617410e+000	6.219148e-008	4.788588e-008
1.230268770812378e+000	6.077583e-008	4.723051e-008
1.258925411794164e+000	5.939241e-008	4.657230e-008
1.288249551693131e+000	5.804047e-008	4.591174e-008
1.318256738556404e+000	5.671931e-008	4.524931e-008
1.348962882591650e+000	5.542822e-008	4.458550e-008
1.380384264602881e+000	5.416652e-008	4.392079e-008
1.412537544622750e+000	5.293354e-008	4.325566e-008
1.445439770745923e+000	5.172862e-008	4.259059e-008
1.479108388168203e+000	5.055114e-008	4.192603e-008
1.513561248436204e+000	4.940045e-008	4.126245e-008
1.548816618912477e+000	4.827596e-008	4.060029e-008
1.584893192461109e+000	4.717707e-008	3.994000e-008
1.621810097358925e+000	4.610319e-008	3.928198e-008
1.659586907437555e+000	4.505375e-008	3.862666e-008
1.698243652461739e+000	4.402820e-008	3.797443e-008
1.737800828749370e+000	4.302600e-008	3.732568e-008
1.778279410038917e+000	4.204660e-008	3.668076e-008
1.819700858609977e+000	4.108951e-008	3.604005e-008
1.862087136662861e+000	4.015419e-008	3.540386e-008
1.905460717963241e+000	3.924017e-008	3.477252e-008
1.949844599758039e+000	3.834696e-008	3.414634e-008
1.995262314968873e+000	3.747408e-008	3.352559e-008
2.041737944669523e+000	3.662106e-008	3.291056e-008
2.089296130854033e+000	3.578747e-008	3.230150e-008
2.137962089502225e+000	3.497284e-008	3.169863e-008
2.187761623949545e+000	3.417676e-008	3.110217e-008
2.238721138568332e+000	3.339881e-008	3.051234e-008
2.290867652767766e+000	3.263856e-008	2.992932e-008
2.344228815319914e+000	3.189561e-008	2.935327e-008
2.398832919019482e+000	3.116958e-008	2.878436e-008
2.454708915685022e+000	3.046007e-008	2.822271e-008
2.511886431509572e+000	2.976672e-008	2.766847e-008
2.570395782768855e+000	2.908914e-008	2.712173e-008
2.630267991895373e+000	2.842699e-008	2.658259e-008
2.691534803926906e+000	2.777992e-008	2.605114e-008
2.754228703338157e+000	2.714757e-008	2.552745e-008
2.818382931264444e+000	2.652961e-008	2.501157e-008
2.884031503126595e+000	2.592573e-008	2.450355e-008
2.951209226666375e+000	2.533558e-008	2.400342e-008
3.019951720402005e+000	2.475888e-008	2.351122e-008
3.090295432513579e+000	2.419530e-008	2.302694e-008
3.162277660168367e+000	2.364454e-008	2.255060e-008
3.235936569296270e+000	2.310633e-008	2.208219e-008
3.311311214825898e+000	2.258036e-008	2.162170e-008
3.388441561392012e+000	2.206637e-008	2.116910e-008
3.467368504525302e+000	2.156408e-008	2.072437e-008
3.548133892335740e+000	2.107322e-008	2.028746e-008
3.630780547700999e+000	2.059354e-008	1.985834e-008
3.715352290971711e+000	2.012477e-008	1.943696e-008
3.801893963205597e+000	1.966668e-008	1.902325e-008
3.890451449942790e+000	1.921901e-008	1.861716e-008
3.981071705534956e+000	1.878153e-008	1.821863e-008
4.073802778041110e+000	1.835401e-008	1.782757e-008
4.168693834703337e+000	1.793622e-008	1.744393e-008
4.265795188015909e+000	1.752794e-008	1.706762e-008
4.365158322401642e+000	1.712896e-008	1.669856e-008
4.466835921509612e+000	1.673905e-008	1.633666e-008
4.570881896148731e+000	1.635803e-008	1.598184e-008
4.677351412871962e+000	1.598567e-008	1.563401e-008
4.786300923226363e+000	1.562180e-008	1.529308e-008
4.897788193684440e+000	1.526620e-008	1.495894e-008
5.011872336272701e+000	1.491870e-008	1.463152e-008
5.128613839913625e+000	1.457911e-008	1.431071e-008
5.248074602497702e+000	1.424725e-008	1.399642e-008
5.370317963702503e+000	1.392294e-008	1.368854e-008
5.495408738576220e+000	1.360601e-008	1.338697e-008
5.623413251903465e+000	1.329630e-008	1.309162e-008
5.754399373371542e+000	1.299364e-008	1.280239e-008
5.888436553555861e+000	1.269787e-008	1.251917e-008
6.025595860743549e+000	1.240883e-008	1.224187e-008
6.165950018614792e+000	1.212637e-008	1.197038e-008
6.309573444801902e+000	1.185034e-008	1.170460e-008
6.456542290346524e+000	1.158060e-008	1.144444e-008
6.606934480075928e+000	1.131699e-008	1.118979e-008
6.760829753919785e+000	1.105938e-008	1.094055e-008
6.918309709189331e+000	1.080764e-008	1.069663e-008
7.079457843841344e+000	1.056163e-008	1.045792e-008
7.244359600749864e+000	1.032122e-008	1.022434e-008
7.413102413009137e+000	1.008628e-008	9.995780e-009
7.585775750291798e+000	9.856686e-009	9.772150e-009
7.762471166286877e+000	9.632321e-009	9.553354e-009
7.943282347242774e+000	9.413062e-009	9.339299e-009
8.128305161640951e+000	9.198796e-009	9.129892e-009
8.317637711026666e+000	8.989405e-009	8.925043e-009
8.511380382023720e+000	8.784781e-009	8.724661e-009
8.709635899560761e+000	8.584816e-009	8.528658e-009
8.912509381337408e+000	8.389401e-009	8.336944e-009
9.120108393559049e+000	8.198435e-009	8.149436e-009
9.332543007969861e+000	8.011816e-009	7.966046e-009
9.549925860214309e+000	7.829445e-009	7.786690e-009
9.772372209558055e+000	7.651225e-009	7.611288e-009
9.999999999999947e+000	7.477062e-009	7.439755e-009
1.023292992280749e+001	7.306863e-009	7.272014e-009
1.047128548050894e+001	7.140538e-009	7.107984e-009
1.071519305237601e+001	6.978000e-009	6.947590e-009
1.096478196143179e+001	6.819161e-009	6.790752e-009
1.122018454301957e+001	6.663938e-009	6.637399e-009
1.148153621496876e+001	6.512249e-009	6.487455e-009
1.174897554939523e+001	6.364012e-009	6.340849e-009
1.202264434617406e+001	6.219149e-009	6.197509e-009
1.230268770812375e+001	6.077584e-009	6.057366e-009
1.258925411794160e+001	5.939242e-009	5.920352e-009
1.288249551693127e+001	5.804048e-009	5.786398e-009
1.318256738556400e+001	5.671931e-009	5.655440e-009
1.348962882591646e+001	5.542823e-009	5.527413e-009
1.380384264602877e+001	5.416652e-009	5.402253e-009
1.412537544622746e+001	5.293355e-009	5.279898e-009
1.445439770745919e+001	5.172863e-009	5.160288e-009
1.479108388168199e+001	5.055115e-009	5.043362e-009
1.513561248436199e+001	4.940046e-009	4.929062e-009
1.548816618912472e+001	4.827597e-009	4.817331e-009
1.584893192461104e+001	4.717708e-009	4.708111e-009
1.621810097358920e+001	4.610319e-009	4.601349e-009
1.659586907437550e+001	4.505376e-009	4.496990e-009
1.698243652461734e+001	4.402821e-009	4.394981e-009
1.737800828749365e+001	4.302600e-009	4.295271e-009
1.778279410038912e+001	4.204661e-009	4.197808e-009
1.819700858609972e+001	4.108951e-009	4.102543e-009
1.862087136662855e+001	4.015420e-009	4.009427e-009
1.905460717963235e+001	3.924018e-009	3.918413e-009
1.949844599758032e+001	3.834697e-009	3.829454e-009
1.995262314968866e+001	3.747409e-009	3.742505e-009
2.041737944669515e+001	3.662107e-009	3.657519e-009
2.089296130854025e+001	3.578748e-009	3.574455e-009
2.137962089502218e+001	3.497285e-009	3.493269e-009
2.187761623949537e+001	3.417677e-009	3.413919e-009
2.238721138568324e+001	3.339881e-009	3.336364e-009
2.290867652767757e+001	3.263857e-009	3.260564e-009
2.344228815319906e+001	3.189562e-009	3.186480e-009
2.398832919019474e+001	3.116959e-009	3.114073e-009
2.454708915685013e+001	3.046008e-009	3.043306e-009
2.511886431509563e+001	2.976673e-009	2.974142e-009
2.570395782768846e+001	2.908916e-009	2.906545e-009
2.630267991895363e+001	2.842701e-009	2.840480e-009
2.691534803926897e+001	2.777993e-009	2.775912e-009
2.754228703338147e+001	2.714758e-009	2.712808e-009
2.818382931264434e+001	2.652963e-009	2.651135e-009
2.884031503126585e+001	2.592574e-009	2.590861e-009
2.951209226666364e+001	2.533560e-009	2.531954e-009
3.019951720401994e+001	2.475889e-009	2.474383e-009
3.090295432513568e+001	2.419531e-009	2.418118e-009
3.162277660168356e+001	2.364456e-009	2.363130e-009
3.235936569296258e+001	2.310634e-009	2.309391e-009
3.311311214825886e+001	2.258038e-009	2.256871e-009
3.388441561392000e+001	2.206639e-009	2.205543e-009
3.467368504525290e+001	2.156409e-009	2.155381e-009
3.548133892335728e+001	2.107324e-009	2.106357e-009
3.630780547700986e+001	2.059355e-009	2.058447e-009
3.715352290971697e+001	2.012479e-009	2.011626e-009
3.801893963205583e+001	1.966669e-009	1.965867e-009
3.890451449942776e+001	1.921902e-009	1.921148e-009
3.981071705534941e+001	1.878155e-009	1.877445e-009
4.073802778041095e+001	1.835403e-009	1.834735e-009
4.168693834703321e+001	1.793624e-009	1.792996e-009
4.265795188015893e+001	1.752796e-009	1.752205e-009
4.365158322401625e+001	1.712898e-009	1.712341e-009
4.466835921509595e+001	1.673908e-009	1.673383e-009
4.570881896148713e+001	1.635805e-009	1.635311e-009
4.677351412871944e+001	1.598569e-009	1.598104e-009
4.786300923226344e+001	1.562182e-009	1.561742e-009
4.897788193684422e+001	1.526622e-009	1.526208e-009
5.011872336272682e+001	1.491872e-009	1.491481e-009
5.128613839913606e+001	1.457913e-009	1.457544e-009
5.248074602497682e+001	1.424727e-009	1.424378e-009
5.370317963702482e+001	1.392296e-009	1.391967e-009
5.495408738576199e+001	1.360604e-009	1.360292e-009
5.623413251903443e+001	1.329633e-009	1.329338e-009
5.754399373371521e+001	1.299367e-009	1.299088e-009
5.888436553555840e+001	1.269790e-009	1.269526e-009
6.025595860743526e+001	1.240886e-009	1.240636e-009
6.165950018614769e+001	1.212640e-009	1.212403e-009
6.309573444801878e+001	1.185037e-009	1.184813e-009
6.456542290346499e+001	1.158063e-009	1.157850e-009
6.606934480075903e+001	1.131702e-009	1.131500e-009
6.760829753919759e+001	1.105942e-009	1.105750e-009
6.918309709189305e+001	1.080767e-009	1.080585e-009
7.079457843841317e+001	1.056166e-009	1.055993e-009
7.244359600749837e+001	1.032125e-009	1.031961e-009
7.413102413009111e+001	1.008631e-009	1.008475e-009
7.585775750291771e+001	9.856721e-010	9.855233e-010
7.762471166286849e+001	9.632357e-010	9.630939e-010
7.943282347242744e+001	9.413099e-010	9.411749e-010
8.128305161640920e+001	9.198832e-010	9.197546e-010
8.317637711026636e+001	8.989443e-010	8.988216e-010
8.511380382023688e+001	8.784820e-010	8.783650e-010
8.709635899560728e+001	8.584855e-010	8.583738e-010
8.912509381337374e+001	8.389442e-010	8.388374e-010
9.120108393559013e+001	8.198477e-010	8.197457e-010
9.332543007969824e+001	8.011858e-010	8.010883e-010
9.549925860214270e+001	7.829488e-010	7.828556e-010
9.772372209558016e+001	7.651270e-010	7.650376e-010
9.999999999999906e+001	7.477107e-010	7.476252e-010
1.023292992280745e+002	7.306910e-010	7.306090e-010
1.047128548050890e+002	7.140586e-010	7.139801e-010
1.071519305237596e+002	6.978049e-010	6.977295e-010
1.096478196143175e+002	6.819212e-010	6.818489e-010
1.122018454301953e+002	6.663990e-010	6.663295e-010
1.148153621496872e+002	6.512301e-010	6.511634e-010
1.174897554939518e+002	6.364065e-010	6.363425e-010
1.202264434617402e+002	6.219204e-010	6.218588e-010
1.230268770812370e+002	6.077641e-010	6.077048e-010
1.258925411794155e+002	5.939299e-010	5.938728e-010
1.288249551693122e+002	5.804107e-010	5.803557e-010
1.318256738556394e+002	5.671992e-010	5.671463e-010
1.348962882591640e+002	5.542884e-010	5.542374e-010
1.380384264602871e+002	5.416716e-010	5.416224e-010
1.412537544622740e+002	5.293420e-010	5.292945e-010
1.445439770745913e+002	5.172929e-010	5.172471e-010
1.479108388168193e+002	5.055182e-010	5.054740e-010
1.513561248436193e+002	4.940116e-010	4.939689e-010
1.548816618912466e+002	4.827668e-010	4.827255e-010
1.584893192461097e+002	4.717780e-010	4.717381e-010
1.621810097358913e+002	4.610394e-010	4.610008e-010
1.659586907437543e+002	4.505452e-010	4.505079e-010
1.698243652461727e+002	4.402899e-010	4.402538e-010
1.737800828749357e+002	4.302680e-010	4.302331e-010
1.778279410038904e+002	4.204743e-010	4.204404e-010
1.819700858609964e+002	4.109035e-010	4.108707e-010
1.862087136662848e+002	4.015506e-010	4.015188e-010
1.905460717963227e+002	3.924106e-010	3.923798e-010
1.949844599758025e+002	3.834786e-010	3.834488e-010
1.995262314968859e+002	3.747500e-010	3.747210e-010
2.041737944669508e+002	3.662201e-010	3.661920e-010
2.089296130854017e+002	3.578843e-010	3.578570e-010
2.137962089502209e+002	3.497383e-010	3.497119e-010
2.187761623949529e+002	3.417777e-010	3.417521e-010
2.238721138568316e+002	3.339984e-010	3.339735e-010
2.290867652767749e+002	3.263962e-010	3.263719e-010
2.344228815319897e+002	3.189670e-010	3.189434e-010
2.398832919019465e+002	3.117069e-010	3.116840e-010
2.454708915685004e+002	3.046121e-010	3.045898e-010
2.511886431509553e+002	2.976788e-010	2.976571e-010
2.570395782768836e+002	2.909033e-010	2.908823e-010
2.630267991895354e+002	2.842821e-010	2.842616e-010
2.691534803926887e+002	2.778116e-010	2.777917e-010
2.754228703338137e+002	2.714884e-010	2.714690e-010
2.818382931264423e+002	2.653092e-010	2.652903e-010
2.884031503126574e+002	2.592706e-010	2.592522e-010
2.951209226666354e+002	2.533695e-010	2.533516e-010
3.019951720401983e+002	2.476027e-010	2.475853e-010
3.090295432513557e+002	2.419672e-010	2.419503e-010
3.162277660168345e+002	2.364600e-010	2.364435e-010
3.235936569296247e+002	2.310782e-010	2.310621e-010
3.311311214825875e+002	2.258189e-010	2.258033e-010
3.388441561391988e+002	2.206793e-010	2.206641e-010
3.467368504525278e+002	2.156568e-010	2.156419e-010
3.548133892335715e+002	2.107486e-010	2.107341e-010
3.630780547700973e+002	2.059521e-010	2.059380e-010
3.715352290971684e+002	2.012648e-010	2.012511e-010
3.801893963205569e+002	1.966843e-010	1.966708e-010
3.890451449942762e+002	1.922080e-010	1.921949e-010
3.981071705534927e+002	1.878336e-010	1.878208e-010
4.073802778041081e+002	1.835588e-010	1.835464e-010
4.168693834703306e+002	1.793814e-010	1.793692e-010
4.265795188015877e+002	1.752990e-010	1.752872e-010
4.365158322401609e+002	1.713096e-010	1.712981e-010
4.466835921509579e+002	1.674111e-010	1.673998e-010
4.570881896148697e+002	1.636013e-010	1.635903e-010
4.677351412871927e+002	1.598782e-010	1.598675e-010
4.786300923226327e+002	1.562399e-010	1.562294e-010
4.897788193684405e+002	1.526845e-010	1.526742e-010
5.011872336272664e+002	1.492099e-010	1.492000e-010
5.128613839913588e+002	1.458146e-010	1.458048e-010
5.248074602497665e+002	1.424965e-010	1.424870e-010
5.370317963702464e+002	1.392540e-010	1.392447e-010
5.495408738576181e+002	1.360853e-010	1.360762e-010
5.623413251903425e+002	1.329887e-010	1.329799e-010
5.754399373371501e+002	1.299627e-010	1.299541e-010
5.888436553555820e+002	1.270056e-010	1.269972e-010
6.025595860743506e+002	1.241158e-010	1.241076e-010
6.165950018614748e+002	1.212918e-010	1.212838e-010
6.309573444801856e+002	1.185322e-010	1.185243e-010
6.456542290346476e+002	1.158353e-010	1.158277e-010
6.606934480075879e+002	1.131999e-010	1.131925e-010
6.760829753919735e+002	1.106245e-010	1.106172e-010
