Stray ".ends" card: .ends
Stray ".ends" card: .ends
Stray ".ends" card: .ends
Circuit: * Z:\home\koblitz\Simulationsbeispiele_WS14\Elektronik_Lab\dienstag\T1-1_5.asc

Direct Newton iteration for .op point succeeded.
Semiconductor Device Operating Points:
                        --- Bipolar Transistors ---
Name:       q1
Model:     npnx
Ib:       1.65e-05
Ic:       1.65e-05
Vbe:      5.93e-01
Vbc:     -9.22e+00
Vce:      9.81e+00
BetaDC:   1.00e+00
Gm:       6.36e-04
Rpi:      1.57e+03
Rx:       0.00e+00
Ro:         NaN
Cbe:      0.00e+00
Cbc:      0.00e+00
Cjs:      0.00e+00
BetaAC:   1.00e+00
Cbx:      0.00e+00
Ft:       0.00e+00



Date: Tue Dec 02 15:38:11 2014
Total elapsed time: 4.819 seconds.

tnom = 27
temp = 27
method = trap
totiter = 7
traniter = 0
tranpoints = 0
accept = 0
rejected = 0
matrix size = 9
fillins = 0
solver = Normal
Matrix Compiler1: 376 Bytes object code size
Matrix Compiler2: 633 Bytes object code size

