vb	V(col)	V(em)
0,000000000000000e+000	1,000000e+001	5,536372e-011
5,000000000000000e-002	1,000000e+001	2,706140e-010
1,000000000000000e-001	1,000000e+001	2,839745e-009
1,500000000000000e-001	1,000000e+001	1,797909e-008
2,000000000000000e-001	1,000000e+001	1,194747e-007
2,500000000000000e-001	9,999999e+000	8,054848e-007
3,000000000000000e-001	9,999991e+000	5,452894e-006
3,500000000000000e-001	9,999945e+000	3,693106e-005
4,000000000000000e-001	9,999628e+000	2,485249e-004
4,500000000000000e-001	9,997610e+000	1,598777e-003
4,999999999999999e-001	9,987514e+000	8,351175e-003
5,499999999999999e-001	9,959356e+000	2,718083e-002
6,000000000000000e-001	9,914416e+000	5,723383e-002
6,500000000000000e-001	9,859764e+000	9,378092e-002
7,000000000000001e-001	9,799868e+000	1,338359e-001
7,500000000000001e-001	9,736948e+000	1,759123e-001
8,000000000000002e-001	9,671841e+000	2,194519e-001
8,500000000000002e-001	9,605351e+000	2,639163e-001
9,000000000000002e-001	9,537869e+000	3,090446e-001
9,500000000000003e-001	9,469627e+000	3,546824e-001
1,000000000000000e+000	9,400788e+000	4,007193e-001
1,050000000000000e+000	9,331472e+000	4,470757e-001
1,100000000000000e+000	9,261767e+000	4,936929e-001
1,150000000000000e+000	9,191739e+000	5,405268e-001
1,200000000000000e+000	9,121438e+000	5,875434e-001
1,250000000000000e+000	9,050905e+000	6,347159e-001
1,300000000000001e+000	8,980172e+000	6,820226e-001
1,350000000000001e+000	8,909266e+000	7,294461e-001
1,400000000000001e+000	8,838206e+000	7,769721e-001
1,450000000000001e+000	8,767013e+000	8,245886e-001
1,500000000000001e+000	8,695700e+000	8,722855e-001
1,550000000000001e+000	8,624280e+000	9,200544e-001
1,600000000000001e+000	8,552765e+000	9,678878e-001
1,650000000000001e+000	8,481163e+000	1,015779e+000
1,700000000000001e+000	8,409484e+000	1,063724e+000
1,750000000000001e+000	8,337733e+000	1,111717e+000
1,800000000000001e+000	8,265918e+000	1,159753e+000
1,850000000000001e+000	8,194044e+000	1,207829e+000
1,900000000000001e+000	8,122115e+000	1,255943e+000
1,950000000000001e+000	8,050138e+000	1,304090e+000
2,000000000000001e+000	7,978114e+000	1,352268e+000
2,050000000000001e+000	7,906048e+000	1,400475e+000
2,100000000000001e+000	7,833943e+000	1,448709e+000
2,150000000000000e+000	7,761802e+000	1,496968e+000
2,200000000000000e+000	7,689627e+000	1,545250e+000
2,250000000000000e+000	7,617422e+000	1,593553e+000
2,300000000000000e+000	7,545187e+000	1,641876e+000
2,350000000000000e+000	7,472926e+000	1,690218e+000
2,400000000000000e+000	7,400640e+000	1,738577e+000
2,449999999999999e+000	7,328330e+000	1,786952e+000
2,499999999999999e+000	7,255999e+000	1,835343e+000
2,549999999999999e+000	7,183647e+000	1,883747e+000
2,599999999999999e+000	7,111277e+000	1,932166e+000
2,649999999999999e+000	7,038889e+000	1,980596e+000
2,699999999999998e+000	6,966485e+000	2,029038e+000
2,749999999999998e+000	6,894065e+000	2,077492e+000
2,799999999999998e+000	6,821630e+000	2,125955e+000
2,849999999999998e+000	6,749183e+000	2,174428e+000
2,899999999999998e+000	6,676723e+000	2,222910e+000
2,949999999999998e+000	6,604252e+000	2,271401e+000
2,999999999999997e+000	6,531769e+000	2,319900e+000
3,049999999999997e+000	6,459277e+000	2,368406e+000
3,099999999999997e+000	6,386775e+000	2,416919e+000
3,149999999999997e+000	6,314264e+000	2,465439e+000
3,199999999999997e+000	6,241745e+000	2,513964e+000
3,249999999999996e+000	6,169219e+000	2,562496e+000
3,299999999999996e+000	6,096686e+000	2,611033e+000
3,349999999999996e+000	6,024147e+000	2,659575e+000
3,399999999999996e+000	5,951602e+000	2,708122e+000
3,449999999999996e+000	5,879051e+000	2,756673e+000
3,499999999999996e+000	5,806495e+000	2,805228e+000
3,549999999999995e+000	5,733935e+000	2,853787e+000
3,599999999999995e+000	5,661371e+000	2,902349e+000
3,649999999999995e+000	5,588803e+000	2,950915e+000
3,699999999999995e+000	5,516232e+000	2,999483e+000
3,749999999999995e+000	5,443658e+000	3,048054e+000
3,799999999999995e+000	5,371082e+000	3,096628e+000
3,849999999999994e+000	5,298503e+000	3,145204e+000
3,899999999999994e+000	5,225923e+000	3,193782e+000
3,949999999999994e+000	5,153341e+000	3,242362e+000
3,999999999999994e+000	5,080758e+000	3,290943e+000
4,049999999999994e+000	5,008174e+000	3,339526e+000
4,099999999999993e+000	4,935589e+000	3,388110e+000
4,149999999999993e+000	4,863005e+000	3,436695e+000
4,199999999999993e+000	4,790420e+000	3,485281e+000
4,249999999999993e+000	4,717834e+000	3,533868e+000
4,299999999999993e+000	4,645250e+000	3,582455e+000
4,349999999999993e+000	4,572667e+000	3,631043e+000
4,399999999999992e+000	4,500083e+000	3,679631e+000
4,449999999999992e+000	4,427502e+000	3,728219e+000
4,499999999999992e+000	4,354921e+000	3,776807e+000
4,549999999999992e+000	4,282343e+000	3,825394e+000
4,599999999999992e+000	4,209804e+000	3,873961e+000
4,649999999999992e+000	4,139447e+000	3,921317e+000
4,699999999999991e+000	4,097023e+000	3,953156e+000
4,749999999999991e+000	4,084332e+000	3,968477e+000
4,799999999999991e+000	4,080092e+000	3,979103e+000
4,849999999999991e+000	4,078973e+000	3,987995e+000
4,899999999999991e+000	4,079915e+000	3,995742e+000
4,949999999999990e+000	4,081780e+000	4,002975e+000
4,999999999999990e+000	4,084217e+000	4,009893e+000
5,049999999999990e+000	4,087106e+000	4,016560e+000
5,099999999999990e+000	4,090340e+000	4,023035e+000
5,149999999999990e+000	4,093839e+000	4,029364e+000
5,199999999999990e+000	4,097548e+000	4,035576e+000
5,249999999999989e+000	4,101429e+000	4,041694e+000
5,299999999999989e+000	4,105453e+000	4,047733e+000
5,349999999999989e+000	4,109594e+000	4,053708e+000
5,399999999999989e+000	4,113838e+000	4,059626e+000
5,449999999999989e+000	4,118169e+000	4,065496e+000
5,499999999999989e+000	4,122576e+000	4,071324e+000
5,549999999999988e+000	4,127049e+000	4,077117e+000
5,599999999999988e+000	4,131581e+000	4,082877e+000
5,649999999999988e+000	4,136166e+000	4,088609e+000
5,699999999999988e+000	4,140797e+000	4,094315e+000
5,749999999999988e+000	4,145471e+000	4,099998e+000
5,799999999999987e+000	4,150182e+000	4,105661e+000
5,849999999999987e+000	4,154929e+000	4,111306e+000
5,899999999999987e+000	4,159706e+000	4,116933e+000
5,949999999999987e+000	4,164513e+000	4,122545e+000
5,999999999999987e+000	4,169345e+000	4,128142e+000
6,049999999999987e+000	4,174202e+000	4,133727e+000
6,099999999999986e+000	4,179082e+000	4,139299e+000
6,149999999999986e+000	4,183983e+000	4,144861e+000
6,199999999999986e+000	4,188903e+000	4,150412e+000
6,249999999999986e+000	4,193841e+000	4,155954e+000
6,299999999999986e+000	4,198795e+000	4,161487e+000
6,349999999999985e+000	4,203765e+000	4,167012e+000
6,399999999999985e+000	4,208750e+000	4,172529e+000
6,449999999999985e+000	4,213748e+000	4,178039e+000
6,499999999999985e+000	4,218760e+000	4,183542e+000
6,549999999999985e+000	4,223784e+000	4,189039e+000
6,599999999999985e+000	4,228819e+000	4,194530e+000
6,649999999999984e+000	4,233865e+000	4,200015e+000
6,699999999999984e+000	4,238921e+000	4,205494e+000
6,749999999999984e+000	4,243987e+000	4,210969e+000
6,799999999999984e+000	4,249062e+000	4,216440e+000
6,849999999999984e+000	4,254146e+000	4,221906e+000
6,899999999999984e+000	4,259237e+000	4,227367e+000
6,949999999999983e+000	4,264337e+000	4,232825e+000
6,999999999999983e+000	4,269444e+000	4,238279e+000
7,049999999999983e+000	4,274559e+000	4,243730e+000
7,099999999999983e+000	4,279680e+000	4,249177e+000
7,149999999999983e+000	4,284807e+000	4,254620e+000
7,199999999999982e+000	4,289941e+000	4,260061e+000
7,249999999999982e+000	4,295081e+000	4,265498e+000
7,299999999999982e+000	4,300226e+000	4,270933e+000
7,349999999999982e+000	4,305377e+000	4,276365e+000
7,399999999999982e+000	4,310533e+000	4,281795e+000
7,449999999999982e+000	4,315693e+000	4,287222e+000
7,499999999999981e+000	4,320859e+000	4,292647e+000
7,549999999999981e+000	4,326029e+000	4,298069e+000
7,599999999999981e+000	4,331204e+000	4,303490e+000
7,649999999999981e+000	4,336383e+000	4,308908e+000
7,699999999999981e+000	4,341566e+000	4,314325e+000
7,749999999999981e+000	4,346753e+000	4,319739e+000
7,799999999999980e+000	4,351943e+000	4,325152e+000
7,849999999999980e+000	4,357138e+000	4,330563e+000
7,899999999999980e+000	4,362335e+000	4,335972e+000
7,949999999999980e+000	4,367537e+000	4,341380e+000
8,000000000000000e+000	4,372741e+000	4,346786e+000

