Stray ".ends" card: .ends
Stray ".ends" card: .ends
Stray ".ends" card: .ends
Circuit: * Z:\home\koblitz\Simulationsbeispiele_WS14\Elektronik_Vor\q1e-stufe.asc

Direct Newton iteration for .op point succeeded.
Semiconductor Device Operating Points:
                        --- Bipolar Transistors ---
Name:       q1
Model:    mein_q
Ib:       5.00e-06
Ic:       1.04e-03
Vbe:      7.74e-01
Vbc:     -2.14e+00
Vce:      2.91e+00
BetaDC:   2.09e+02
Gm:       4.03e-02
Rpi:      5.17e+03
Rx:       0.00e+00
Ro:       5.00e+04
Cbe:      0.00e+00
Cbc:      0.00e+00
Cjs:      0.00e+00
BetaAC:   2.08e+02
Cbx:      0.00e+00
Ft:       0.00e+00



Date: Wed Nov 05 10:41:53 2014
Total elapsed time: 0.036 seconds.

tnom = 27
temp = 27
method = trap
totiter = 7
traniter = 0
tranpoints = 0
accept = 0
rejected = 0
matrix size = 7
fillins = 0
solver = Normal
Matrix Compiler1: 196 Bytes object code size
Matrix Compiler2: 453 Bytes object code size

