Stray ".ends" card: .ends
Stray ".ends" card: .ends
Stray ".ends" card: .ends
Circuit: * Z:\home\koblitz\Simulationsbeispiele_WS14\Elektronik_Vor\q_pnp_1.asc

Direct Newton iteration for .op point succeeded.
Semiconductor Device Operating Points:
                        --- Bipolar Transistors ---
Name:       q1
Model:    bc557b
Ib:      -1.08e-06
Ic:      -4.53e-04
Vbe:     -5.99e-01
Vbc:      6.23e+00
Vce:     -6.83e+00
BetaDC:   4.19e+02
Gm:       1.73e-02
Rpi:      2.45e+04
Rx:       1.00e+00
Ro:       5.95e+04
Cbe:      4.01e-11
Cbc:      1.56e-12
Cjs:      0.00e+00
BetaAC:   4.23e+02
Cbx:      9.21e-13
Ft:       6.45e+07



Date: Mon Oct 20 10:38:10 2014
Total elapsed time: 0.059 seconds.

tnom = 27
temp = 27
method = trap
totiter = 7
traniter = 0
tranpoints = 0
accept = 0
rejected = 0
matrix size = 8
fillins = 0
solver = Normal
Matrix Compiler1: 478 Bytes object code size
Matrix Compiler2: 642 Bytes object code size

