Stray ".ends" card: .ends
Stray ".ends" card: .ends
Stray ".ends" card: .ends
Circuit: * Z:\home\koblitz\Simulationsbeispiele_WS14\Elektronik_Vor\T2-C.asc

Direct Newton iteration for .op point succeeded.
Semiconductor Device Operating Points:
                        --- Bipolar Transistors ---
Name:       q1          q2
Model:    bc547b      bc557b
Ib:       2.64e-07   -1.08e-05
Ic:       7.69e-05   -3.99e-03
Vbe:      5.71e-01   -6.61e-01
Vbc:     -2.17e+00    3.51e+00
Vce:      2.74e+00   -4.18e+00
BetaDC:   2.91e+02    3.71e+02
Gm:       2.97e-03    1.47e-01
Rpi:      9.87e+04    2.44e+03
Rx:       1.00e+00    1.00e+00
Ro:       8.26e+05    6.06e+03
Cbe:      2.84e-11    1.17e-10
Cbc:      1.33e-12    1.91e-12
Cjs:      0.00e+00    0.00e+00
BetaAC:   2.93e+02    3.58e+02
Cbx:      8.19e-13    1.13e-12
Ft:       1.55e+07    1.94e+08



Date: Thu Dec 11 12:13:59 2014
Total elapsed time: 0.128 seconds.

tnom = 27
temp = 27
method = trap
totiter = 8
traniter = 0
tranpoints = 0
accept = 0
rejected = 0
matrix size = 17
fillins = 6
solver = Normal
Matrix Compiler1: 1,33 KB object code size
Matrix Compiler2: 1,48 KB object code size

