Circuit: * Z:\home\koblitz\Simulationsbeispiele_WS14\Elektronik_Lab\mittwoch\beta-kennlininie1.asc

Direct Newton iteration for .op point succeeded.
Semiconductor Device Operating Points:
                        --- Bipolar Transistors ---
Name:       q1
Model:    2n4124
Ib:       1.00e-06
Ic:       1.38e-04
Vbe:      6.13e-01
Vbc:     -4.39e+00
Vce:      5.00e+00
BetaDC:   1.38e+02
Gm:       5.34e-03
Rpi:      3.08e+04
Rx:       1.00e+01
Ro:       5.66e+05
Cbe:      7.87e-12
Cbc:      2.01e-12
Cjs:      0.00e+00
BetaAC:   1.65e+02
Cbx:      0.00e+00
Ft:       8.60e+07



Date: Thu Oct 30 11:28:09 2014
Total elapsed time: 0.104 seconds.

tnom = 27
temp = 27
method = trap
totiter = 9
traniter = 0
tranpoints = 0
accept = 0
rejected = 0
matrix size = 5
fillins = 0
solver = Normal
Matrix Compiler1: 230 Bytes object code size
Matrix Compiler2: 355 Bytes object code size

