Freq.	V(isensa)
1.00000000000000e+001	2.13309482252757e+000,-9.73506456121845e-004
1.00695555005672e+001	2.13309481847695e+000,-9.80277727966728e-004
1.01395947979003e+001	2.13309481436979e+000,-9.87096097710066e-004
1.02101212570719e+001	2.13309481020529e+000,-9.93961892943006e-004
1.02811382665607e+001	2.13309480598266e+000,-1.00087544353568e-003
1.03526492384138e+001	2.13309480170108e+000,-1.00783708165223e-003
1.04246576084112e+001	2.13309479735973e+000,-1.01484714176743e-003
1.04971668362307e+001	2.13309479295778e+000,-1.02190596068232e-003
1.05701804056138e+001	2.13309478849439e+000,-1.02901387754078e-003
1.06437018245336e+001	2.13309478396868e+000,-1.03617123384544e-003
1.07177346253629e+001	2.13309477937980e+000,-1.04337837347434e-003
1.07922823650443e+001	2.13309477472686e+000,-1.05063564269729e-003
1.08673486252606e+001	2.13309477000897e+000,-1.05794339019267e-003
1.09429370126074e+001	2.13309476522521e+000,-1.06530196706405e-003
1.10190511587661e+001	2.13309476037468e+000,-1.07271172685710e-003
1.10956947206785e+001	2.13309475545644e+000,-1.08017302557662e-003
1.11728713807222e+001	2.13309475046954e+000,-1.08768622170367e-003
1.12505848468881e+001	2.13309474541303e+000,-1.09525167621254e-003
1.13288388529580e+001	2.13309474028593e+000,-1.10286975258842e-003
1.14076371586842e+001	2.13309473508726e+000,-1.11054081684475e-003
1.14869835499704e+001	2.13309472981602e+000,-1.11826523754067e-003
1.15668818390529e+001	2.13309472447120e+000,-1.12604338579893e-003
1.16473358646846e+001	2.13309471905177e+000,-1.13387563532359e-003
1.17283494923188e+001	2.13309471355668e+000,-1.14176236241803e-003
1.18099266142953e+001	2.13309470798488e+000,-1.14970394600296e-003
1.18920711500272e+001	2.13309470233531e+000,-1.15770076763481e-003
1.19747870461893e+001	2.13309469660687e+000,-1.16575321152369e-003
1.20580782769076e+001	2.13309469079846e+000,-1.17386166455235e-003
1.21419488439505e+001	2.13309468490897e+000,-1.18202651629443e-003
1.22264027769207e+001	2.13309467893727e+000,-1.19024815903306e-003
1.23114441334492e+001	2.13309467288221e+000,-1.19852698778020e-003
1.23970769993899e+001	2.13309466674261e+000,-1.20686340029515e-003
1.24833054890161e+001	2.13309466051732e+000,-1.21525779710376e-003
1.25701337452183e+001	2.13309465420512e+000,-1.22371058151790e-003
1.26575659397028e+001	2.13309464780481e+000,-1.23222215965456e-003
1.27456062731927e+001	2.13309464131515e+000,-1.24079294045562e-003
1.28342589756291e+001	2.13309463473490e+000,-1.24942333570716e-003
1.29235283063750e+001	2.13309462806279e+000,-1.25811376005967e-003
1.30134185544194e+001	2.13309462129754e+000,-1.26686463104739e-003
1.31039340385837e+001	2.13309461443786e+000,-1.27567636910915e-003
1.31950791077290e+001	2.13309460748242e+000,-1.28454939760784e-003
1.32868581409652e+001	2.13309460042988e+000,-1.29348414285126e-003
1.33792755478612e+001	2.13309459327889e+000,-1.30248103411216e-003
1.34723357686569e+001	2.13309458602808e+000,-1.31154050364919e-003
1.35660432744768e+001	2.13309457867605e+000,-1.32066298672772e-003
1.36604025675440e+001	2.13309457122139e+000,-1.32984892164050e-003
1.37554181813975e+001	2.13309456366267e+000,-1.33909874972875e-003
1.38510946811093e+001	2.13309455599843e+000,-1.34841291540350e-003
1.39474366635041e+001	2.13309454822721e+000,-1.35779186616689e-003
1.40444487573800e+001	2.13309454034750e+000,-1.36723605263366e-003
1.41421356237310e+001	2.13309453235779e+000,-1.37674592855279e-003
1.42405019559708e+001	2.13309452425656e+000,-1.38632195082932e-003
1.43395524801583e+001	2.13309451604223e+000,-1.39596457954626e-003
1.44392919552250e+001	2.13309450771324e+000,-1.40567427798670e-003
1.45397251732032e+001	2.13309449926797e+000,-1.41545151265619e-003
1.46408569594563e+001	2.13309449070482e+000,-1.42529675330497e-003
1.47426921729111e+001	2.13309448202212e+000,-1.43521047295069e-003
1.48452357062905e+001	2.13309447321823e+000,-1.44519314790094e-003
1.49484924863494e+001	2.13309446429143e+000,-1.45524525777646e-003
1.50524674741107e+001	2.13309445524002e+000,-1.46536728553381e-003
1.51571656651040e+001	2.13309444606226e+000,-1.47555971748876e-003
1.52625920896057e+001	2.13309443675638e+000,-1.48582304333985e-003
1.53687518128802e+001	2.13309442732060e+000,-1.49615775619141e-003
1.54756499354240e+001	2.13309441775310e+000,-1.50656435257772e-003
1.55832915932101e+001	2.13309440805204e+000,-1.51704333248677e-003
1.56916819579351e+001	2.13309439821556e+000,-1.52759519938400e-003
1.58008262372676e+001	2.13309438824177e+000,-1.53822046023684e-003
1.59107296750984e+001	2.13309437812874e+000,-1.54891962553891e-003
1.60213975517925e+001	2.13309436787455e+000,-1.55969320933445e-003
1.61328351844426e+001	2.13309435747721e+000,-1.57054172924323e-003
1.62450479271248e+001	2.13309434693473e+000,-1.58146570648532e-003
1.63580411711557e+001	2.13309433624509e+000,-1.59246566590613e-003
1.64718203453515e+001	2.13309432540622e+000,-1.60354213600149e-003
1.65863909162889e+001	2.13309431441604e+000,-1.61469564894330e-003
1.67017583885675e+001	2.13309430327245e+000,-1.62592674060489e-003
1.68179283050744e+001	2.13309429197330e+000,-1.63723595058683e-003
1.69349062472506e+001	2.13309428051642e+000,-1.64862382224320e-003
1.70526978353592e+001	2.13309426889961e+000,-1.66009090270659e-003
1.71713087287552e+001	2.13309425712064e+000,-1.67163774291603e-003
1.72907446261574e+001	2.13309424517723e+000,-1.68326489764201e-003
1.74110112659226e+001	2.13309423306710e+000,-1.69497292551398e-003
1.75321144263208e+001	2.13309422078793e+000,-1.70676238904677e-003
1.76540599258132e+001	2.13309420833733e+000,-1.71863385466778e-003
1.77768536233315e+001	2.13309419571294e+000,-1.73058789274431e-003
1.79005014185596e+001	2.13309418291232e+000,-1.74262507761065e-003
1.80250092522167e+001	2.13309416993301e+000,-1.75474598759602e-003
1.81503831063433e+001	2.13309415677251e+000,-1.76695120505206e-003
1.82766290045881e+001	2.13309414342830e+000,-1.77924131638088e-003
1.84037530124976e+001	2.13309412989781e+000,-1.79161691206346e-003
1.85317612378075e+001	2.13309411617844e+000,-1.80407858668771e-003
1.86606598307363e+001	2.13309410226756e+000,-1.81662693897732e-003
1.87904549842804e+001	2.13309408816249e+000,-1.82926257182008e-003
1.89211529345120e+001	2.13309407386051e+000,-1.84198609229742e-003
1.90527599608789e+001	2.13309405935889e+000,-1.85479811171322e-003
1.91852823865054e+001	2.13309404465484e+000,-1.86769924562321e-003
1.93187265784970e+001	2.13309402974553e+000,-1.88069011386457e-003
1.94530989482458e+001	2.13309401462809e+000,-1.89377134058578e-003
1.95884059517387e+001	2.13309399929961e+000,-1.90694355427651e-003
1.97246540898673e+001	2.13309398375716e+000,-1.92020738779790e-003
1.98618499087409e+001	2.13309396799775e+000,-1.93356347841276e-003
2.00000000000001e+001	2.13309395201834e+000,-1.94701246781663e-003
2.01391110011345e+001	2.13309393581587e+000,-1.96055500216811e-003
2.02791895958007e+001	2.13309391938722e+000,-1.97419173212015e-003
2.04202425141440e+001	2.13309390272924e+000,-1.98792331285125e-003
2.05622765331215e+001	2.13309388583871e+000,-2.00175040409703e-003
2.07052984768277e+001	2.13309386871241e+000,-2.01567367018183e-003
2.08493152168226e+001	2.13309385134703e+000,-2.02969378005061e-003
2.09943336724615e+001	2.13309383373924e+000,-2.04381140730125e-003
2.11403608112278e+001	2.13309381588566e+000,-2.05802723021654e-003
2.12874036490674e+001	2.13309379778285e+000,-2.07234193179735e-003
2.14354692507260e+001	2.13309377942733e+000,-2.08675619979485e-003
2.15845647300887e+001	2.13309376081558e+000,-2.10127072674390e-003
2.17346972505213e+001	2.13309374194401e+000,-2.11588620999616e-003
2.18858740252150e+001	2.13309372280902e+000,-2.13060335175381e-003
2.20381023175324e+001	2.13309370340690e+000,-2.14542285910304e-003
2.21913894413571e+001	2.13309368373395e+000,-2.16034544404814e-003
2.23457427614446e+001	2.13309366378636e+000,-2.17537182354559e-003
2.25011696937764e+001	2.13309364356033e+000,-2.19050271953862e-003
2.26576777059162e+001	2.13309362305195e+000,-2.20573885899222e-003
2.28152743173687e+001	2.13309360225728e+000,-2.22108097392710e-003
2.29739670999409e+001	2.13309358117233e+000,-2.23652980145592e-003
2.31337636781060e+001	2.13309355979304e+000,-2.25208608381818e-003
2.32946717293693e+001	2.13309353811531e+000,-2.26775056841584e-003
2.34566989846378e+001	2.13309351613497e+000,-2.28352400784931e-003
2.36198532285908e+001	2.13309349384780e+000,-2.29940715995382e-003
2.37841423000546e+001	2.13309347124951e+000,-2.31540078783517e-003
2.39495740923788e+001	2.13309344833576e+000,-2.33150565990782e-003
2.41161565538154e+001	2.13309342510215e+000,-2.34772254993167e-003
2.42838976879012e+001	2.13309340154420e+000,-2.36405223704374e-003
2.44528055538416e+001	2.13309337765740e+000,-2.38049550580496e-003
2.46228882668986e+001	2.13309335343716e+000,-2.39705314623185e-003
2.47941539987800e+001	2.13309332887881e+000,-2.41372595383569e-003
2.49666109780325e+001	2.13309330397764e+000,-2.43051472965904e-003
2.51402674904368e+001	2.13309327872886e+000,-2.44742028032142e-003
2.53151318794059e+001	2.13309325312763e+000,-2.46444341804701e-003
2.54912125463855e+001	2.13309322716901e+000,-2.48158496071173e-003
2.56685179512583e+001	2.13309320084803e+000,-2.49884573187942e-003
2.58470566127501e+001	2.13309317415961e+000,-2.51622656084269e-003
2.60268371088389e+001	2.13309314709865e+000,-2.53372828266189e-003
2.62078680771675e+001	2.13309311965992e+000,-2.55135173820546e-003
2.63901582154582e+001	2.13309309183817e+000,-2.56909777419048e-003
2.65737162819305e+001	2.13309306362804e+000,-2.58696724322324e-003
2.67585510957225e+001	2.13309303502411e+000,-2.60496100384039e-003
2.69446715373141e+001	2.13309300602089e+000,-2.62307992054953e-003
2.71320865489537e+001	2.13309297661279e+000,-2.64132486387187e-003
2.73208051350882e+001	2.13309294679418e+000,-2.65969671038263e-003
2.75108363627952e+001	2.13309291655931e+000,-2.67819634275454e-003
2.77021893622188e+001	2.13309288590238e+000,-2.69682464979923e-003
2.78948733270084e+001	2.13309285481749e+000,-2.71558252651048e-003
2.80888975147603e+001	2.13309282329868e+000,-2.73447087410721e-003
2.82842712474622e+001	2.13309279133988e+000,-2.75349060007624e-003
2.84810039119418e+001	2.13309275893495e+000,-2.77264261821635e-003
2.86791049603169e+001	2.13309272607767e+000,-2.79192784868236e-003
2.88785839104503e+001	2.13309269276172e+000,-2.81134721802876e-003
2.90794503464066e+001	2.13309265898069e+000,-2.83090165925470e-003
2.92817139189129e+001	2.13309262472810e+000,-2.85059211184859e-003
2.94853843458224e+001	2.13309258999736e+000,-2.87041952183302e-003
2.96904714125813e+001	2.13309255478180e+000,-2.89038484181090e-003
2.98969849726991e+001	2.13309251907465e+000,-2.91048903101047e-003
3.01049349482217e+001	2.13309248286905e+000,-2.93073305533180e-003
3.03143313302083e+001	2.13309244615803e+000,-2.95111788739297e-003
3.05251841792116e+001	2.13309240893455e+000,-2.97164450657696e-003
3.07375036257606e+001	2.13309237119145e+000,-2.99231389907892e-003
3.09512998708482e+001	2.13309233292148e+000,-3.01312705795267e-003
3.11665831864204e+001	2.13309229411727e+000,-3.03408498315949e-003
3.13833639158704e+001	2.13309225477139e+000,-3.05518868161547e-003
3.16016524745355e+001	2.13309221487625e+000,-3.07643916724019e-003
3.18214593501972e+001	2.13309217442420e+000,-3.09783746100513e-003
3.20427951035853e+001	2.13309213340746e+000,-3.11938459098296e-003
3.22656703688855e+001	2.13309209181815e+000,-3.14108159239704e-003
3.24900958542498e+001	2.13309204964828e+000,-3.16292950767081e-003
3.27160823423117e+001	2.13309200688973e+000,-3.18492938647788e-003
3.29436406907034e+001	2.13309196353430e+000,-3.20708228579378e-003
3.31727818325781e+001	2.13309191957365e+000,-3.22938926994292e-003
3.34035167771352e+001	2.13309187499934e+000,-3.25185141065467e-003
3.36358566101490e+001	2.13309182980279e+000,-3.27446978711203e-003
3.38698124945015e+001	2.13309178397532e+000,-3.29724548600345e-003
3.41053956707187e+001	2.13309173750812e+000,-3.32017960157617e-003
3.43426174575106e+001	2.13309169039228e+000,-3.34327323568777e-003
3.45814892523151e+001	2.13309164261871e+000,-3.36652749785938e-003
3.48220225318454e+001	2.13309159417825e+000,-3.38994350532963e-003
3.50642288526419e+001	2.13309154506160e+000,-3.41352238310706e-003
3.53081198516267e+001	2.13309149525930e+000,-3.43726526402529e-003
3.55537072466633e+001	2.13309144476178e+000,-3.46117328879739e-003
3.58010028371194e+001	2.13309139355935e+000,-3.48524760606935e-003
3.60500185044337e+001	2.13309134164216e+000,-3.50948937247694e-003
3.63007662126869e+001	2.13309128900023e+000,-3.53389975270046e-003
3.65532580091765e+001	2.13309123562345e+000,-3.55847991952043e-003
3.68075060249955e+001	2.13309118150156e+000,-3.58323105387477e-003
3.70635224756154e+001	2.13309112662416e+000,-3.60815434491707e-003
3.73213196614728e+001	2.13309107098070e+000,-3.63325099006420e-003
3.75809099685610e+001	2.13309101456049e+000,-3.65852219506917e-003
3.78423058690244e+001	2.13309095735268e+000,-3.68396917406807e-003
3.81055199217581e+001	2.13309089934628e+000,-3.70959314964213e-003
3.83705647730111e+001	2.13309084053014e+000,-3.73539535287545e-003
3.86374531569944e+001	2.13309078089296e+000,-3.76137702341701e-003
3.89061978964920e+001	2.13309072042328e+000,-3.78753940952990e-003
3.91768119034777e+001	2.13309065910948e+000,-3.81388376816721e-003
3.94493081797350e+001	2.13309059693977e+000,-3.84041136502124e-003
3.97236998174820e+001	2.13309053390221e+000,-3.86712347458769e-003
4.00000000000006e+001	2.13309046998467e+000,-3.89402138022614e-003
4.02782220022694e+001	2.13309040517488e+000,-3.92110637422240e-003
4.05583791916018e+001	2.13309033946038e+000,-3.94837975785002e-003
4.08404850282884e+001	2.13309027282855e+000,-3.97584284143308e-003
4.11245530662433e+001	2.13309020526657e+000,-4.00349694440869e-003
4.14105969536557e+001	2.13309013676146e+000,-4.03134339539190e-003
4.16986304336455e+001	2.13309006730006e+000,-4.05938353223733e-003
4.19886673449234e+001	2.13308999686901e+000,-4.08761870210455e-003
4.22807216224559e+001	2.13308992545479e+000,-4.11605026152290e-003
4.25748072981351e+001	2.13308985304366e+000,-4.14467957645644e-003
4.28709385014524e+001	2.13308977962172e+000,-4.17350802236935e-003
4.31691294601778e+001	2.13308970517484e+000,-4.20253698429275e-003
4.34693945010430e+001	2.13308962968873e+000,-4.23176785689006e-003
4.37717480504303e+001	2.13308955314887e+000,-4.26120204452499e-003
4.40762046350651e+001	2.13308947554056e+000,-4.29084096132827e-003
4.43827788827145e+001	2.13308939684888e+000,-4.32068603126639e-003
4.46914855228895e+001	2.13308931705870e+000,-4.35073868820889e-003
4.50023393875531e+001	2.13308923615470e+000,-4.38100037599851e-003
4.53153554118327e+001	2.13308915412133e+000,-4.41147254851944e-003
4.56305486347377e+001	2.13308907094281e+000,-4.44215666976792e-003
4.59479341998822e+001	2.13308898660317e+000,-4.47305421392186e-003
4.62675273562123e+001	2.13308890108620e+000,-4.50416666541208e-003
4.65893434587390e+001	2.13308881437546e+000,-4.53549551899382e-003
4.69133979692759e+001	2.13308872645428e+000,-4.56704227981825e-003
4.72397064571820e+001	2.13308863730577e+000,-4.59880846350413e-003
4.75682846001096e+001	2.13308854691280e+000,-4.63079559621203e-003
4.78991481847580e+001	2.13308845525799e+000,-4.66300521471621e-003
4.82323131076312e+001	2.13308836232374e+000,-4.69543886647963e-003
4.85677953758027e+001	2.13308826809217e+000,-4.72809810972695e-003
4.89056111076836e+001	2.13308817254518e+000,-4.76098451352079e-003
4.92457765337975e+001	2.13308807566441e+000,-4.79409965783611e-003
4.95883079975603e+001	2.13308797743125e+000,-4.82744513363624e-003
4.99332219560653e+001	2.13308787782679e+000,-4.86102254294969e-003
5.02805349808740e+001	2.13308777683192e+000,-4.89483349894680e-003
5.06302637588121e+001	2.13308767442722e+000,-4.92887962601695e-003
5.09824250927714e+001	2.13308757059300e+000,-4.96316255985087e-003
5.13370359025171e+001	2.13308746530932e+000,-4.99768394750418e-003
5.16941132255006e+001	2.13308735855594e+000,-5.03244544749840e-003
5.20536742176783e+001	2.13308725031234e+000,-5.06744872988558e-003
5.24157361543355e+001	2.13308714055772e+000,-5.10269547633368e-003
5.27803164309167e+001	2.13308702927099e+000,-5.13818738020511e-003
5.31474325638614e+001	2.13308691643076e+000,-5.17392614663975e-003
5.35171021914455e+001	2.13308680201535e+000,-5.20991349263689e-003
5.38893430746286e+001	2.13308668600276e+000,-5.24615114713741e-003
5.42641730979079e+001	2.13308656837070e+000,-5.28264085110326e-003
5.46416102701768e+001	2.13308644909656e+000,-5.31938435760794e-003
5.50216727255908e+001	2.13308632815743e+000,-5.35638343191556e-003
5.54043787244380e+001	2.13308620553005e+000,-5.39363985156746e-003
5.57897466540173e+001	2.13308608119087e+000,-5.43115540646714e-003
5.61777950295209e+001	2.13308595511599e+000,-5.46893189896599e-003
5.65685424949249e+001	2.13308582728116e+000,-5.50697114395048e-003
5.69620078238839e+001	2.13308569766185e+000,-5.54527496892884e-003
5.73582099206342e+001	2.13308556623312e+000,-5.58384521411867e-003
5.77571678209009e+001	2.13308543296972e+000,-5.62268373253660e-003
5.81589006928135e+001	2.13308529784604e+000,-5.66179239008475e-003
5.85634278378261e+001	2.13308516083611e+000,-5.70117306564329e-003
5.89707686916452e+001	2.13308502191360e+000,-5.74082765115811e-003
5.93809428251631e+001	2.13308488105182e+000,-5.78075805173326e-003
5.97939699453987e+001	2.13308473822369e+000,-5.82096618572187e-003
6.02098698964438e+001	2.13308459340176e+000,-5.86145398481849e-003
6.06286626604171e+001	2.13308444655820e+000,-5.90222339415133e-003
6.10503683584235e+001	2.13308429766478e+000,-5.94327637237622e-003
6.14750072515217e+001	2.13308414669291e+000,-5.98461489177063e-003
6.19025997416968e+001	2.13308399361356e+000,-6.02624093832782e-003
6.23331663728412e+001	2.13308383839730e+000,-6.06815651185292e-003
6.27667278317413e+001	2.13308368101433e+000,-6.11036362605749e-003
6.32033049490714e+001	2.13308352143437e+000,-6.15286430866012e-003
6.36429187003948e+001	2.13308335962677e+000,-6.19566060147810e-003
6.40855902071710e+001	2.13308319556044e+000,-6.23875456052952e-003
6.45313407377714e+001	2.13308302920384e+000,-6.28214825613075e-003
6.49801917085001e+001	2.13308286052500e+000,-6.32584377299579e-003
6.54321646846238e+001	2.13308268949149e+000,-6.36984321034104e-003
6.58872813814072e+001	2.13308251607047e+000,-6.41414868196817e-003
6.63455636651567e+001	2.13308234022859e+000,-6.45876231639234e-003
6.68070335542709e+001	2.13308216193206e+000,-6.50368625692629e-003
6.72717132202985e+001	2.13308198114663e+000,-6.54892266178842e-003
6.77396249890036e+001	2.13308179783753e+000,-6.59447370420577e-003
6.82107913414379e+001	2.13308161196955e+000,-6.64034157251861e-003
6.86852349150217e+001	2.13308142350696e+000,-6.68652847028516e-003
6.91629785046307e+001	2.13308123241355e+000,-6.73303661638792e-003
6.96440450636914e+001	2.13308103865259e+000,-6.77986824514006e-003
7.01284577052843e+001	2.13308084218684e+000,-6.82702560639218e-003
7.06162397032539e+001	2.13308064297856e+000,-6.87451096564112e-003
7.11074144933271e+001	2.13308044098944e+000,-6.92232660413786e-003
7.16020056742393e+001	2.13308023618068e+000,-6.97047481899704e-003
7.21000370088680e+001	2.13308002851292e+000,-7.01895792331140e-003
7.26015324253744e+001	2.13307981794623e+000,-7.06777824625218e-003
7.31065160183536e+001	2.13307960444017e+000,-7.11693813319316e-003
7.36150120499916e+001	2.13307938795370e+000,-7.16643994581658e-003
7.41270449512313e+001	2.13307916844521e+000,-7.21628606222763e-003
7.46426393229462e+001	2.13307894587251e+000,-7.26647887706896e-003
7.51618199371226e+001	2.13307872019283e+000,-7.31702080163541e-003
7.56846117380493e+001	2.13307849136281e+000,-7.36791426398987e-003
