Circuit: * Z:\home\koblitz\Simulationsbeispiele_WS14\EAS\bg_tr_os.asc

Ignoring empty pin current: Ix(u2:inp)
Ignoring empty pin current: Ix(u2:inm)
Direct Newton iteration failed to find .op point.  (Use ".option noopiter" to skip.)
Starting Gmin stepping
Gmin = 10
Gmin = 1.07374
Gmin = 0.115292
Gmin = 0.0123794
Gmin = 0.00132923
Gmin = 0.000142725
Gmin = 1.5325e-005
Gmin = 1.6455e-006
Gmin = 1.76685e-007
Gmin = 1.89714e-008
Gmin = 2.03704e-009
Gmin = 2.18725e-010
Gmin = 2.34854e-011
Gmin = 2.52173e-012
Gmin = 2.70769e-013
Gmin = 0
Gmin stepping succeeded in finding the operating point.

Semiconductor Device Operating Points:
                        --- Diodes ---
Name:    d:u2:1      d:u2:2      d:u2:3      d:u2:4
Model:    u2:dx       u2:dx       u2:dx       u2:dx
Id:     -2.66e-12   -5.14e-12   -9.99e-11   -9.99e-11
Vd:     -2.66e+00   -5.14e+00   -9.99e+01   -9.99e+01
Req:     1.00e+12    1.00e+12    1.00e+12    1.00e+12
CAP:     0.00e+00    0.00e+00    0.00e+00    0.00e+00

                        --- Bipolar Transistors ---
Name:       q3          q2          q1
Model:    ca3046      ca3046      ca3046
Ib:       1.33e-06    1.07e-06    1.24e-06
Ic:       9.87e-05    4.91e-05    9.79e-05
Vbe:      5.95e-01    5.22e-01    5.93e-01
Vbc:      0.00e+00   -7.83e+00   -7.83e+00
Vce:      5.95e-01    8.35e+00    8.43e+00
BetaDC:   7.40e+01    4.59e+01    7.88e+01
Gm:       3.80e-03    1.90e-03    3.77e-03
Rpi:      2.30e+04    3.13e+04    2.48e+04
Rx:       0.00e+00    0.00e+00    0.00e+00
Ro:       1.01e+06    2.18e+06    1.10e+06
Cbe:      2.60e-12    1.22e-11    2.59e-12
Cbc:      9.92e-13    3.52e-12    4.40e-13
Cjs:      0.00e+00    0.00e+00    0.00e+00
BetaAC:   8.77e+01    5.95e+01    9.36e+01
Cbx:      0.00e+00    0.00e+00    0.00e+00
Ft:       1.69e+08    1.92e+07    1.99e+08



Date: Mon Oct 13 12:41:00 2014
Total elapsed time: 0.487 seconds.

tnom = 27
temp = 27
method = trap
totiter = 432
traniter = 0
tranpoints = 0
accept = 0
rejected = 0
matrix size = 23
fillins = 12
solver = Normal
Matrix Compiler1: 1,53 KB object code size
Matrix Compiler2: off  [2.0]/2.1/5.0


