Stray ".ends" card: .ends
Stray ".ends" card: .ends
Stray ".ends" card: .ends
Circuit: * Z:\home\koblitz\Simulationsbeispiele_WS14\EAS\widlar_stromquelle.asc

Direct Newton iteration for .op point succeeded.
Semiconductor Device Operating Points:
                        --- Bipolar Transistors ---
Name:       q1          q2
Model:      npn         npn
Ib:       9.90e-06    4.08e-07
Ic:       9.90e-04    4.08e-05
Vbe:      7.74e-01    6.92e-01
Vbc:      0.00e+00   -2.26e-01
Vce:      7.74e-01    9.18e-01
BetaDC:   1.00e+02    1.00e+02
Gm:       3.83e-02    1.58e-03
Rpi:      2.61e+03    6.34e+04
Rx:       0.00e+00    0.00e+00
Ro:       2.59e+14    1.61e+18
Cbe:      0.00e+00    0.00e+00
Cbc:      0.00e+00    0.00e+00
Cjs:      0.00e+00    0.00e+00
BetaAC:   1.00e+02    1.00e+02
Cbx:      0.00e+00    0.00e+00
Ft:       0.00e+00    0.00e+00



Date: Mon Oct 06 13:12:55 2014
Total elapsed time: 0.040 seconds.

tnom = 27
temp = 27
method = trap
totiter = 10
traniter = 0
tranpoints = 0
accept = 0
rejected = 0
matrix size = 4
fillins = 0
solver = Normal
Matrix Compiler1: 118 Bytes object code size
Matrix Compiler2: 282 Bytes object code size

