Circuit: * Z:\home\mainster\CODES_local\LTSpice_projects\HF_technik\Draft4.asc

Warning: Multiple definitions of model "ca3046" Type: BJT
Warning: Multiple definitions of model "bc817-25" Type: BJT
Direct Newton iteration for .op point succeeded.
Semiconductor Device Operating Points:
                        --- Bipolar Transistors ---
Name:       q2
Model:     bdx77
Ib:       1.25e-04
Ic:       1.42e-02
Vbe:      6.25e-01
Vbc:     -3.17e-03
Vce:      6.28e-01
BetaDC:   1.14e+02
Gm:       5.20e-01
Rpi:      3.93e+02
Rx:       0.00e+00
Ro:       7.02e+03
Cbe:      9.97e-09
Cbc:      4.85e-10
Cjs:      0.00e+00
BetaAC:   2.04e+02
Cbx:      0.00e+00
Ft:       7.92e+06



Date: Wed Aug 12 04:14:11 2015
Total elapsed time: 2.282 seconds.

tnom = 27
temp = 27
method = trap
totiter = 5
traniter = 0
tranpoints = 0
accept = 0
rejected = 0
matrix size = 6
fillins = 0
solver = Normal
Matrix Compiler1: 298 bytes object code size
Matrix Compiler2: 462 bytes object code size

