Circuit: * Z:\home\mainster\CODES_local\LTSpice_projects\HF_technik\KEMO_MIC_UKW_sender.asc

Warning: Multiple definitions of model "npnx" Type: BJT
Warning: Multiple definitions of model "npnx2" Type: BJT
Warning: Multiple definitions of model "ca3046" Type: BJT
Warning: Multiple definitions of model "bc817-25" Type: BJT
Direct Newton iteration for .op point succeeded.
Semiconductor Device Operating Points:
                        --- Bipolar Transistors ---
Name:       q2          q1
Model:   bc337-40    bc817-25
Ib:       7.99e-10    3.36e-06
Ic:       3.14e-07    1.20e-03
Vbe:      3.90e-01    6.03e-01
Vbc:     -4.81e+00   -8.44e+00
Vce:      5.20e+00    9.05e+00
BetaDC:   3.93e+02    3.56e+02
Gm:       1.22e-05    4.59e-02
Rpi:      3.31e+07    7.73e+03
Rx:       7.00e+01    1.00e+00
Ro:       3.36e+08    9.51e+04
Cbe:      4.91e-11    1.02e-10
Cbc:      2.25e-12    1.75e-12
Cjs:      0.00e+00    0.00e+00
BetaAC:   4.05e+02    3.55e+02
Cbx:      2.70e-12    2.09e-12
Ft:       3.60e+04    6.88e+07


.step x=0.1
.step x=0.3
.step x=0.5
.step x=0.7
.step x=0.9
.step x=0.95

Date: Wed Aug 12 22:50:22 2015
Total elapsed time: 0.465 seconds.

tnom = 27
temp = 27
method = trap
totiter = 16
traniter = 0
tranpoints = 0
accept = 0
rejected = 0
matrix size = 37
fillins = 6
solver = Normal
Matrix Compiler1:     104 opcodes
Matrix Compiler2: 2.52 KB object code size

