Circuit: * Z:\home\mainster\CODES_local\LTSpice_projects\current_source_sinks_tempstab.asc

Direct Newton iteration for .op point succeeded.
Semiconductor Device Operating Points:
                        --- Diodes ---
Name:      d3          d2          d4          d1
Model:      d           d         1n914       1n914
Id:      6.05e-03    6.05e-03    1.00e-03    1.55e-03
Vd:      7.45e-01    7.45e-01    6.39e-01    6.57e-01
Req:     3.89e+00    3.89e+00    4.12e+01    2.67e+01
CAP:     0.00e+00    0.00e+00    4.91e-10    7.56e-10

                        --- Bipolar Transistors ---
Name:     q:u3:4      q:u3:3      q:u3:2      q:u3:1        q3
Model:     u3:n        u3:n        u3:p        u3:p         pnp
Ib:      -2.85e-11   -5.30e-13   -4.13e-08    1.27e-12   -4.36e-04
Ic:       2.79e-11    6.62e-09   -4.96e-06   -1.20e-12   -4.36e-02
Vbe:     -5.30e-01    5.30e-01   -6.86e-01    6.83e-02   -9.00e-01
Vbc:     -2.79e+01   -2.74e+01    4.46e-01    1.20e+00    1.64e+00
Vce:      2.74e+01    2.79e+01   -1.13e+00   -1.13e+00   -2.54e+00
BetaDC:  -9.81e-01   -1.25e+04    1.20e+02   -9.46e-01    1.00e+02
Gm:       7.57e-27    2.80e-07    2.11e-04    2.53e-18    1.85e+00
Rpi:      1.00e+12    8.92e+08    5.70e+05    1.00e+12    5.39e+01
Rx:       5.00e+02    5.00e+02    2.50e+02    2.50e+02    0.00e+00
Ro:       0.00e+00    0.00e+00    3.61e+24    3.00e+38    4.23e+46
Cbe:      4.26e-13    7.59e-13    5.13e-13    2.99e-13    0.00e+00
Cbc:      1.51e-13    1.51e-13    1.31e-12    1.11e-12    0.00e+00
Cjs:      0.00e+00    0.00e+00    0.00e+00    0.00e+00    0.00e+00
BetaAC:   7.57e-15    2.50e+02    1.20e+02    2.53e-06    1.00e+02
Cbx:      0.00e+00    0.00e+00    0.00e+00    0.00e+00    0.00e+00
Ft:       2.76e-01    4.90e+04    1.84e+07    1.13e-01    0.00e+00

Name:       q2        q:u2:3      q:u2:2      q:u2:1      q:u2:6
Model:      pnp       u2:npn1     u2:npn1     u2:npn1     u2:pnp1
Ib:      -1.09e-05    8.08e-08    1.12e-06    1.11e-06   -2.27e-05
Ic:      -1.09e-03    2.55e-05    2.24e-04    2.22e-04   -3.60e-03
Vbe:     -8.13e-01    6.60e-01    7.23e-01    6.63e-01   -7.12e-01
Vbc:      2.85e+01   -5.79e+01    3.10e-03    0.00e+00    5.85e+01
Vce:     -2.93e+01    5.85e+01    7.20e-01    6.63e-01   -5.92e+01
BetaDC:   1.00e+02    3.16e+02    2.00e+02    2.00e+02    1.59e+02
Gm:       4.65e-02    1.08e-03    9.51e-03    9.42e-03    1.53e-01
Rpi:      2.15e+03    2.91e+05    2.10e+04    2.12e+04    1.04e+03
Rx:       0.00e+00    1.00e+02    1.00e+02    8.33e+00    6.25e+00
Ro:       0.00e+00    6.18e+06    4.47e+05    4.51e+05    4.41e+04
Cbe:      0.00e+00    2.76e-12    1.13e-11    2.96e-11    1.53e-08
Cbc:      0.00e+00    1.19e-13    5.15e-13    6.17e-12    1.89e-12
Cjs:      0.00e+00    0.00e+00    0.00e+00    0.00e+00    0.00e+00
BetaAC:   1.00e+02    3.16e+02    2.00e+02    2.00e+02    1.59e+02
Cbx:      0.00e+00    0.00e+00    0.00e+00    0.00e+00    0.00e+00
Ft:       0.00e+00    5.99e+07    1.28e+08    4.19e+07    1.59e+06

Name:     q:u2:5      q:u2:4        q1        q:u1:4      q:u1:3
Model:    u2:pnp1     u2:pnp1     bc550bp      u1:n        u1:n
Ib:      -1.42e-06   -1.42e-06    8.21e-06    1.92e-07    4.81e-05
Ic:      -2.24e-04   -2.24e-04    4.06e-03    4.79e-05    1.20e-02
Vbe:     -7.12e-01   -7.12e-01    7.10e-01    7.40e-01    8.94e-01
Vbc:      5.79e+01    5.79e+01   -5.68e+01   -1.57e+00   -2.31e+00
Vce:     -5.86e+01   -5.86e+01    5.75e+01    2.31e+00    3.20e+00
BetaDC:   1.58e+02    1.58e+02    4.95e+02    2.50e+02    2.50e+02
Gm:       9.51e-03    9.51e-03    1.70e-01    2.04e-03    5.11e-01
Rpi:      1.66e+04    1.66e+04    3.09e+03    1.23e+05    4.89e+02
Rx:       1.00e+02    1.00e+02    5.60e-01    5.00e+02    5.00e+02
Ro:       7.05e+05    7.05e+05    3.25e+04    2.10e+45    2.58e+59
Cbe:      9.53e-10    9.53e-10    1.32e-10    8.88e-13    9.68e-13
Cbc:      1.19e-13    1.19e-13    8.62e-13    3.48e-13    3.16e-13
Cjs:      0.00e+00    0.00e+00    0.00e+00    0.00e+00    0.00e+00
BetaAC:   1.58e+02    1.58e+02    5.26e+02    2.50e+02    2.50e+02
Cbx:      0.00e+00    0.00e+00    0.00e+00    0.00e+00    0.00e+00
Ft:       1.59e+06    1.59e+06    2.05e+08    2.62e+08    6.33e+10

Name:     q:u1:2      q:u1:1
Model:     u1:p        u1:p
Ib:      -1.85e-08   -2.30e-08
Ic:      -2.21e-06   -2.74e-06
Vbe:     -6.67e-01   -6.72e-01
Vbc:      1.21e+00   -4.33e-01
Vce:     -1.87e+00   -2.39e-01
BetaDC:   1.20e+02    1.19e+02
Gm:       9.41e-05    1.17e-04
Rpi:      1.28e+06    1.03e+06
Rx:       2.50e+02    2.50e+02
Ro:       3.72e+38    2.20e+08
Cbe:      5.06e-13    5.08e-13
Cbc:      1.11e-12    2.10e-12
Cjs:      0.00e+00    0.00e+00
BetaAC:   1.20e+02    1.20e+02
Cbx:      0.00e+00    0.00e+00
Ft:       9.29e+06    7.12e+06



Date: Mon Dec 22 09:48:17 2014
Total elapsed time: 1.530 seconds.

tnom = 27
temp = 100
method = trap
totiter = 37
traniter = 0
tranpoints = 0
accept = 0
rejected = 0
matrix size = 59
fillins = 33
solver = Normal
Matrix Compiler1: 7.19 KB object code size
Matrix Compiler2:     487 opcodes

