Circuit: * Z:\media\data\CODES\LTspiceWorkspace\LTspice_projects\Draft12.asc

Direct Newton iteration for .op point succeeded.
Semiconductor Device Operating Points:
                        --- Bipolar Transistors ---
Name:       q1
Model:   bc327-40
Ib:       1.11e-12
Ic:      -1.32e-12
Vbe:     -6.60e-11
Vbc:      8.00e-01
Vce:     -8.00e-01
BetaDC:  -1.19e+00
Gm:       8.18e-12
Rpi:      6.96e+11
Rx:       4.00e+01
Ro:       1.40e+14
Cbe:      5.00e-11
Cbc:      9.13e-12
Cjs:      0.00e+00
BetaAC:   5.69e+00
Cbx:      1.08e-11
Ft:       1.83e-02



Date: Thu Apr 27 11:30:23 2017
Total elapsed time: 1.679 seconds.

tnom = 27
temp = 27
method = trap
totiter = 6
traniter = 0
tranpoints = 0
accept = 0
rejected = 0
matrix size = 8
fillins = 0
Matrix Compiler1: 530 bytes object code size
Matrix Compiler2: 716 bytes object code size
