Questionable use of curly braces in "b1 0 n002  i={{is}/{bf}*exp({vbe0}/{vt})*(1+(v(b)-{vbe0})/{vt})}"
    Error: undefined symbol in: "(is)/(bf)*exp((vbe0)/(vt))*(1+([v](b)-(vbe0))/(vt))"
Circuit: * Z:\home\mainster\CODES_local\LTSpice_projects\linearisierung_bjt.asc

Direct Newton iteration for .op point succeeded.
Semiconductor Device Operating Points:
                        --- Bipolar Transistors ---
Name:       q1
Model:     npnx
Ib:       7.17e-18
Ic:       9.78e-10
Vbe:      2.10e-01
Vbc:     -4.79e+00
Vce:      5.00e+00
BetaDC:   1.36e+08
Gm:       3.76e-08
Rpi:      5.29e+09
Rx:       0.00e+00
Ro:       2.39e+91
Cbe:      0.00e+00
Cbc:      0.00e+00
Cjs:      0.00e+00
BetaAC:   1.99e+02
Cbx:      0.00e+00
Ft:       0.00e+00



Date: Fri Jul 31 00:05:12 2015
Total elapsed time: 4.986 seconds.

tnom = 27
temp = 27
method = trap
totiter = 12
traniter = 0
tranpoints = 0
accept = 0
rejected = 0
matrix size = 5
fillins = 0
solver = Normal
Matrix Compiler1: 132 bytes object code size
Matrix Compiler2: 301 bytes object code size

