Circuit: * Z:\home\mainster\CODES_local\LTSpice_projects\variable_zener_npn.asc

Warning: Multiple definitions of model "ca3046" Type: BJT
Warning: Multiple definitions of model "bc817-25" Type: BJT
WARNING: Less than two connections to node VZ.  This node is used by B1.
WARNING: Less than two connections to node VZB.  This node is used by B2.
Direct Newton iteration for .op point succeeded.
Semiconductor Device Operating Points:
                        --- Bipolar Transistors ---
Name:       q1
Model:     npnx
Ib:      -3.74e-12
Ic:       7.42e-12
Vbe:      1.08e-01
Vbc:     -3.81e+00
Vce:      3.92e+00
BetaDC:  -1.99e+00
Gm:       1.38e-10
Rpi:      5.92e+11
Rx:       0.00e+00
Ro:       4.13e+75
Cbe:      0.00e+00
Cbc:      0.00e+00
Cjs:      0.00e+00
BetaAC:   8.15e+01
Cbx:      0.00e+00
Ft:       0.00e+00



Date: Wed Aug 12 10:35:29 2015
Total elapsed time: 0.478 seconds.

tnom = 27
temp = 27
method = trap
totiter = 6
traniter = 0
tranpoints = 0
accept = 0
rejected = 0
matrix size = 10
fillins = 0
solver = Normal
Matrix Compiler1: 184 bytes object code size
Matrix Compiler2: 482 bytes object code size

